;$FILEVERSION=1.3
;$STARTTIME=44417.5785952458
;
;   C:\Users\saniea.akhtar\Documents\Software\25.05.21\sw20200507\_doc_\PCANExplorer\Trace - 09.08.21.trc
;   Start time: 09/08/2021 13:53:10.629.2
;   Generated by PCAN-Explorer v5.4.2
;-------------------------------------------------------------------------------
;   Bus  Name         Connection           Protocol  Bit rate
;   1    Connection1  ControlCAN@pcan_usb  CAN       250 kbit/s
;-------------------------------------------------------------------------------
;   Message Number
;   |         Time Offset (ms)
;   |         |       Bus
;   |         |       |    Type
;   |         |       |    |       ID (hex)
;   |         |       |    |       |    Reserved
;   |         |       |    |       |    |   Data Length Code
;   |         |       |    |       |    |   |    Data Bytes (hex) ...
;   |         |       |    |       |    |   |    |
;   |         |       |    |       |    |   |    |
;---+-- ------+------ +- --+-- ----+--- +- -+-- -+ -- -- -- -- -- -- --
     1)        11.275 1  Rx        0183 -  8    01 3B 00 15 00 00 00 00 
     2)        31.285 1  Rx        0183 -  8    02 F1 00 28 00 00 00 00 
     3)        51.381 1  Rx        0183 -  8    00 08 07 05 00 0F 0E 00 
     4)        71.306 1  Rx        0183 -  8    01 3E 00 15 00 00 00 00 
     5)        91.359 1  Rx        0183 -  8    00 08 07 03 00 0F 0E 00 
     6)       111.284 1  Rx        0183 -  8    01 38 00 15 00 00 00 00 
     7)       131.294 1  Rx        0183 -  8    02 F1 00 2C 00 00 00 00 
     8)       151.390 1  Rx        0183 -  8    00 08 07 03 00 0F 0E 00 
     9)       171.272 1  Rx        0183 -  8    01 3B 00 15 00 00 00 00 
    10)       191.368 1  Rx        0183 -  8    00 08 07 03 00 0F 0E 00 
    11)       211.293 1  Rx        0183 -  8    01 38 00 15 00 00 00 00 
    12)       231.261 1  Rx        0183 -  8    02 F1 00 2F 00 00 00 00 
    13)       251.356 1  Rx        0183 -  8    00 08 07 03 00 0F 0E 00 
    14)       271.312 1  Rx        0183 -  8    01 3E 00 15 00 00 00 00 
    15)       291.365 1  Rx        0183 -  8    00 08 07 03 00 0F 0E 00 
    16)       311.332 1  Rx        0183 -  8    01 41 00 15 00 00 00 00 
    17)       331.300 1  Rx        0183 -  8    02 F1 00 2A 00 00 00 00 
    18)       351.396 1  Rx        0183 -  8    00 08 07 03 00 0F 0E 00 
    19)       371.321 1  Rx        0183 -  8    01 3E 00 15 00 00 00 00 
    20)       391.374 1  Rx        0183 -  8    00 08 07 03 00 0F 0E 00 
    21)       411.299 1  Rx        0183 -  8    01 3B 00 15 00 00 00 00 
    22)       431.309 1  Rx        0183 -  8    02 F1 00 2C 00 00 00 00 
    23)       451.405 1  Rx        0183 -  8    00 08 07 03 00 0F 0E 00 
    24)       471.287 1  Rx        0183 -  8    01 38 00 15 00 00 00 00 
    25)       491.383 1  Rx        0183 -  8    00 08 07 03 00 0F 0E 00 
    26)       511.308 1  Rx        0183 -  8    01 3E 00 15 00 00 00 00 
    27)       531.275 1  Rx        0183 -  8    02 F1 00 2F 00 00 00 00 
    28)       551.371 1  Rx        0183 -  8    00 08 07 03 00 0F 0E 00 
    29)       571.296 1  Rx        0183 -  8    01 41 00 15 00 00 00 00 
    30)       591.349 1  Rx        0183 -  8    00 08 07 03 00 0F 0E 00 
    31)       611.274 1  Rx        0183 -  8    01 3B 00 15 00 00 00 00 
    32)       631.285 1  Rx        0183 -  8    02 F1 00 28 00 00 00 00 
    33)       651.380 1  Rx        0183 -  8    00 08 07 04 00 0F 0E 00 
    34)       671.305 1  Rx        0183 -  8    01 3E 00 15 00 00 00 00 
    35)       691.358 1  Rx        0183 -  8    00 08 07 03 00 0F 0E 00 
    36)       711.283 1  Rx        0183 -  8    01 38 00 15 00 00 00 00 
    37)       731.294 1  Rx        0183 -  8    02 F1 00 2C 00 00 00 00 
    38)       751.389 1  Rx        0183 -  8    00 08 07 03 00 0F 0E 00 
    39)       771.314 1  Rx        0183 -  8    01 3B 00 16 00 00 00 00 
    40)       791.367 1  Rx        0183 -  8    00 08 07 03 00 0F 0E 00 
    41)       811.292 1  Rx        0183 -  8    01 3B 00 15 00 00 00 00 
    42)       831.260 1  Rx        0183 -  8    02 F1 00 2A 00 00 00 00 
    43)       851.356 1  Rx        0183 -  8    00 08 07 03 00 0F 0E 00 
    44)       871.281 1  Rx        0183 -  8    01 3E 00 15 00 00 00 00 
    45)       891.334 1  Rx        0183 -  8    00 08 07 03 00 0F 0E 00 
    46)       911.302 1  Rx        0183 -  8    01 3E 00 15 00 00 00 00 
    47)       931.269 1  Rx        0183 -  8    02 F1 00 2C 00 00 00 00 
    48)       951.365 1  Rx        0183 -  8    00 08 07 03 00 0F 0E 00 
    49)       971.290 1  Rx        0183 -  8    01 3B 00 14 00 00 00 00 
    50)       991.343 1  Rx        0183 -  8    00 08 07 03 00 0F 0E 00 
    51)      1011.268 1  Rx        0183 -  8    01 3E 00 15 00 00 00 00 
    52)      1031.278 1  Rx        0183 -  8    02 F1 00 2A 00 00 00 00 
    53)      1051.374 1  Rx        0183 -  8    00 08 07 03 00 0F 0E 00 
    54)      1071.299 1  Rx        0183 -  8    01 3E 00 15 00 00 00 00 
    55)      1091.352 1  Rx        0183 -  8    00 08 07 02 00 0F 0E 00 
    56)      1111.277 1  Rx        0183 -  8    01 3B 00 15 00 00 00 00 
    57)      1131.245 1  Rx        0183 -  8    02 F1 00 2A 00 00 00 00 
    58)      1151.340 1  Rx        0183 -  8    00 08 07 03 00 0F 0E 00 
    59)      1171.265 1  Rx        0183 -  8    01 3E 00 15 00 00 00 00 
    60)      1191.318 1  Rx        0183 -  8    00 08 07 03 00 0F 0E 00 
    61)      1211.243 1  Rx        0183 -  8    01 38 00 15 00 00 00 00 
    62)      1231.254 1  Rx        0183 -  8    02 F1 00 2A 00 00 00 00 
    63)      1251.350 1  Rx        0183 -  8    00 08 07 03 00 0F 0E 00 
    64)      1271.235 1  Rx        0183 -  8    01 3B 00 15 00 00 00 00 
    65)      1291.288 1  Rx        0183 -  8    00 08 07 03 00 0F 0E 00 
    66)      1311.213 1  Rx        0183 -  8    01 3B 00 15 00 00 00 00 
    67)      1331.223 1  Rx        0183 -  8    02 F2 00 2A 00 00 00 00 
    68)      1351.319 1  Rx        0183 -  8    00 08 07 03 00 0F 0E 00 
    69)      1371.201 1  Rx        0183 -  8    01 3B 00 15 00 00 00 00 
    70)      1391.297 1  Rx        0183 -  8    00 08 07 03 00 0F 0E 00 
    71)      1411.222 1  Rx        0183 -  8    01 3B 00 15 00 00 00 00 
    72)      1431.232 1  Rx        0183 -  8    02 F2 00 28 00 00 00 00 
    73)      1451.285 1  Rx        0183 -  8    00 08 07 03 00 0F 0E 00 
    74)      1471.210 1  Rx        0183 -  8    01 38 00 15 00 00 00 00 
    75)      1491.263 1  Rx        0183 -  8    00 08 07 03 00 0F 0E 00 
    76)      1511.231 1  Rx        0183 -  8    01 3E 00 15 00 00 00 00 
    77)      1531.198 1  Rx        0183 -  8    02 F2 00 2A 00 00 00 00 
    78)      1551.294 1  Rx        0183 -  8    00 08 07 03 00 0F 0E 00 
    79)      1571.219 1  Rx        0183 -  8    01 3B 00 15 00 00 00 00 
    80)      1591.272 1  Rx        0183 -  8    00 08 07 03 00 0F 0E 00 
    81)      1611.197 1  Rx        0183 -  8    01 3B 00 15 00 00 00 00 
    82)      1631.208 1  Rx        0183 -  8    02 F1 00 2C 00 00 00 00 
    83)      1651.303 1  Rx        0183 -  8    00 08 07 03 00 0F 0E 00 
    84)      1671.228 1  Rx        0183 -  8    01 4A 00 15 00 00 00 00 
    85)      1691.281 1  Rx        0183 -  8    00 08 07 03 00 0F 0E 00 
    86)      1711.206 1  Rx        0183 -  8    01 3E 00 15 00 00 00 00 
    87)      1731.217 1  Rx        0183 -  8    02 F1 00 28 00 00 00 00 
    88)      1751.270 1  Rx        0183 -  8    00 08 07 03 00 0F 0E 00 
    89)      1771.195 1  Rx        0183 -  8    01 3B 00 15 00 00 00 00 
    90)      1791.248 1  Rx        0183 -  8    00 08 07 03 00 0F 0E 00 
    91)      1811.215 1  Rx        0183 -  8    01 3E 00 15 00 00 00 00 
    92)      1831.183 1  Rx        0183 -  8    02 F2 00 2A 00 00 00 00 
    93)      1851.279 1  Rx        0183 -  8    00 08 07 03 00 0F 0E 00 
    94)      1871.204 1  Rx        0183 -  8    01 3E 00 15 00 00 00 00 
    95)      1891.257 1  Rx        0183 -  8    00 08 07 03 00 0F 0E 00 
    96)      1911.182 1  Rx        0183 -  8    01 2E 00 15 00 00 00 00 
    97)      1931.192 1  Rx        0183 -  8    02 F1 00 2A 00 00 00 00 
    98)      1951.288 1  Rx        0183 -  8    00 08 07 03 00 0F 0E 00 
    99)      1971.213 1  Rx        0183 -  8    01 3E 00 15 00 00 00 00 
   100)      1991.266 1  Rx        0183 -  8    00 08 07 03 00 0F 0E 00 
   101)      2011.191 1  Rx        0183 -  8    01 3E 00 15 00 00 00 00 
   102)      2031.201 1  Rx        0183 -  8    02 F2 00 28 00 00 00 00 
   103)      2051.254 1  Rx        0183 -  8    00 08 07 03 00 0F 0E 00 
   104)      2071.179 1  Rx        0183 -  8    01 3E 00 15 00 00 00 00 
   105)      2091.232 1  Rx        0183 -  8    00 08 07 03 00 0F 0E 00 
   106)      2111.157 1  Rx        0183 -  8    01 3B 00 15 00 00 00 00 
   107)      2131.168 1  Rx        0183 -  8    02 F2 00 2A 00 00 00 00 
   108)      2151.263 1  Rx        0183 -  8    00 08 07 03 00 0F 0E 00 
   109)      2171.188 1  Rx        0183 -  8    01 41 00 15 00 00 00 00 
   110)      2191.242 1  Rx        0183 -  8    00 08 07 03 00 0F 0E 00 
   111)      2211.167 1  Rx        0183 -  8    01 35 00 15 00 00 00 00 
   112)      2231.177 1  Rx        0183 -  8    02 F1 00 28 00 00 00 00 
   113)      2251.273 1  Rx        0183 -  8    00 08 07 03 00 0F 0E 00 
   114)      2271.185 1  Rx        0183 -  8    01 38 00 15 00 00 00 00 
   115)      2291.281 1  Rx        0183 -  8    00 08 07 02 00 0F 0E 00 
   116)      2311.206 1  Rx        0183 -  8    01 3E 00 15 00 00 00 00 
   117)      2331.173 1  Rx        0183 -  8    02 F2 00 2A 00 00 00 00 
   118)      2351.269 1  Rx        0183 -  8    00 08 07 0A 00 0F 0E 00 
   119)      2371.194 1  Rx        0183 -  8    01 3B 00 2C 00 00 00 00 
   120)      2391.247 1  Rx        0183 -  8    00 08 07 07 00 0F 0E 00 
   121)      2411.215 1  Rx        0183 -  8    01 3E 00 2D 00 00 00 00 
   122)      2431.182 1  Rx        0183 -  8    02 F2 00 2A 00 00 00 00 
   123)      2451.278 1  Rx        0183 -  8    00 08 07 03 00 0F 0E 00 
   124)      2471.203 1  Rx        0183 -  8    01 3B 00 2D 00 00 00 00 
   125)      2491.256 1  Rx        0183 -  8    00 08 07 05 00 0F 0E 00 
   126)      2511.181 1  Rx        0183 -  8    01 3B 00 2E 00 00 00 00 
   127)      2531.192 1  Rx        0183 -  8    02 F2 00 28 00 00 00 00 
   128)      2551.287 1  Rx        0183 -  8    00 08 07 03 00 0F 0E 00 
   129)      2571.170 1  Rx        0183 -  8    01 3E 00 2D 00 00 00 00 
   130)      2591.265 1  Rx        0183 -  8    00 08 07 03 00 0F 0E 00 
   131)      2611.190 1  Rx        0183 -  8    01 3B 00 40 00 00 00 00 
   132)      2631.201 1  Rx        0183 -  8    02 F2 00 28 00 00 00 00 
   133)      2651.254 1  Rx        0183 -  8    00 08 07 15 00 0F 0E 00 
   134)      2671.179 1  Rx        0183 -  8    01 3E 00 41 00 00 00 00 
   135)      2691.232 1  Rx        0183 -  8    00 08 07 03 00 0F 0E 00 
   136)      2711.199 1  Rx        0183 -  8    01 3E 00 40 00 00 00 00 
   137)      2731.167 1  Rx        0183 -  8    02 F2 00 2C 00 00 00 00 
   138)      2751.263 1  Rx        0183 -  8    00 08 07 05 00 0F 0E 00 
   139)      2771.188 1  Rx        0183 -  8    01 38 00 41 00 00 00 00 
   140)      2791.241 1  Rx        0183 -  8    00 08 07 02 00 0F 0E 00 
   141)      2811.166 1  Rx        0183 -  8    01 41 00 42 00 00 00 00 
   142)      2831.176 1  Rx        0183 -  8    02 F1 00 2A 00 00 00 00 
   143)      2851.272 1  Rx        0183 -  8    00 08 07 07 00 0F 0E 00 
   144)      2871.197 1  Rx        0183 -  8    01 38 00 41 00 00 00 00 
   145)      2891.250 1  Rx        0183 -  8    00 08 07 04 00 0F 0E 00 
   146)      2911.175 1  Rx        0183 -  8    01 35 00 42 00 00 00 00 
   147)      2931.143 1  Rx        0183 -  8    02 F1 00 2A 00 00 00 00 
   148)      2951.238 1  Rx        0183 -  8    00 08 07 12 00 0F 0E 00 
   149)      2971.163 1  Rx        0183 -  8    01 38 00 41 00 00 00 00 
   150)      2991.216 1  Rx        0183 -  8    00 08 07 03 00 0F 0E 00 
   151)      3011.184 1  Rx        0183 -  8    01 3E 00 41 00 00 00 00 
   152)      3031.152 1  Rx        0183 -  8    02 F2 00 2C 00 00 00 00 
   153)      3051.247 1  Rx        0183 -  8    00 08 07 05 00 0F 0E 00 
   154)      3071.172 1  Rx        0183 -  8    01 3E 00 5D 00 00 00 00 
   155)      3091.225 1  Rx        0183 -  8    00 08 07 17 00 0F 0E 00 
   156)      3111.150 1  Rx        0183 -  8    01 3B 00 60 00 00 00 00 
   157)      3131.161 1  Rx        0183 -  8    02 F1 00 28 00 00 00 00 
   158)      3151.257 1  Rx        0183 -  8    00 08 07 06 00 0F 0E 00 
   159)      3171.182 1  Rx        0183 -  8    01 3E 00 5F 00 00 00 00 
   160)      3191.235 1  Rx        0183 -  8    00 08 07 03 00 0F 0E 00 
   161)      3211.160 1  Rx        0183 -  8    01 3B 00 60 00 00 00 00 
   162)      3231.170 1  Rx        0183 -  8    02 F2 00 28 00 00 00 00 
   163)      3251.223 1  Rx        0183 -  8    00 08 07 06 00 0F 0E 00 
   164)      3271.159 1  Rx        0183 -  8    01 3E 00 5E 00 00 00 00 
   165)      3291.212 1  Rx        0183 -  8    00 08 07 03 00 0F 0E 00 
   166)      3311.180 1  Rx        0183 -  8    01 3B 00 81 00 00 00 00 
   167)      3331.147 1  Rx        0183 -  8    02 F1 00 2C 00 00 00 00 
   168)      3351.243 1  Rx        0183 -  8    00 08 07 06 00 0F 0E 00 
   169)      3371.168 1  Rx        0183 -  8    01 3B 00 85 00 00 00 00 
   170)      3391.221 1  Rx        0183 -  8    00 08 07 24 00 0F 0E 00 
   171)      3411.146 1  Rx        0183 -  8    01 3E 00 85 00 00 00 00 
   172)      3431.156 1  Rx        0183 -  8    02 F1 00 2A 00 00 00 00 
   173)      3451.252 1  Rx        0183 -  8    00 08 07 05 00 0F 0E 00 
   174)      3471.135 1  Rx        0183 -  8    01 3B 00 86 00 00 00 00 
   175)      3491.230 1  Rx        0183 -  8    00 08 07 0E 00 0F 0E 00 
   176)      3511.155 1  Rx        0183 -  8    01 3B 00 85 00 00 00 00 
   177)      3531.123 1  Rx        0183 -  8    02 F1 00 2A 00 00 00 00 
   178)      3551.219 1  Rx        0183 -  8    00 08 07 04 00 0F 0E 00 
   179)      3571.144 1  Rx        0183 -  8    01 3B 00 90 00 00 00 00 
   180)      3591.197 1  Rx        0183 -  8    00 08 07 03 00 0F 0E 00 
   181)      3611.164 1  Rx        0183 -  8    01 38 00 90 00 00 00 00 
   182)      3631.132 1  Rx        0183 -  8    02 F1 00 2C 00 00 00 00 
   183)      3651.185 1  Rx        0183 -  8    00 08 07 0C 00 0F 0E 00 
   184)      3671.153 1  Rx        0183 -  8    01 3B 00 90 00 00 00 00 
   185)      3691.206 1  Rx        0183 -  8    00 08 07 22 00 0F 0E 00 
   186)      3711.131 1  Rx        0183 -  8    01 3E 00 90 00 00 00 00 
   187)      3731.141 1  Rx        0183 -  8    02 F1 00 2F 00 00 00 00 
   188)      3751.237 1  Rx        0183 -  8    00 08 07 05 00 0F 0E 00 
   189)      3771.119 1  Rx        0183 -  8    01 3B 00 90 00 00 00 00 
   190)      3791.215 1  Rx        0183 -  8    00 08 07 0F 00 0F 0E 00 
   191)      3811.140 1  Rx        0183 -  8    01 3B 00 90 00 00 00 00 
   192)      3831.150 1  Rx        0183 -  8    02 F2 00 28 00 00 00 00 
   193)      3851.203 1  Rx        0183 -  8    00 08 07 04 00 0F 0E 00 
   194)      3871.128 1  Rx        0183 -  8    01 3E 00 8E 00 00 00 00 
   195)      3891.181 1  Rx        0183 -  8    00 08 07 09 00 0F 0E 00 
   196)      3911.149 1  Rx        0183 -  8    01 3E 00 90 00 00 00 00 
   197)      3931.117 1  Rx        0183 -  8    02 F1 00 2F 00 00 00 00 
   198)      3951.170 1  Rx        0183 -  8    00 08 07 0A 00 0F 0E 00 
   199)      3971.137 1  Rx        0183 -  8    01 3E 00 90 00 00 00 00 
   200)      3991.190 1  Rx        0183 -  8    00 08 07 25 00 0F 0E 00 
   201)      4011.115 1  Rx        0183 -  8    01 3B 00 8F 00 00 00 00 
   202)      4031.126 1  Rx        0183 -  8    02 F1 00 2A 00 00 00 00 
   203)      4051.221 1  Rx        0183 -  8    00 08 07 2E 00 0F 0E 00 
   204)      4071.146 1  Rx        0183 -  8    01 38 00 AC 00 00 00 00 
   205)      4091.199 1  Rx        0183 -  8    00 08 07 14 00 0F 0E 00 
   206)      4111.125 1  Rx        0183 -  8    01 3B 00 AC 00 00 00 00 
   207)      4131.092 1  Rx        0183 -  8    02 F1 00 2A 00 00 00 00 
   208)      4151.188 1  Rx        0183 -  8    00 08 07 07 00 0F 0E 00 
   209)      4171.113 1  Rx        0183 -  8    01 35 00 AD 00 00 00 00 
   210)      4191.166 1  Rx        0183 -  8    00 08 07 08 00 0F 0E 00 
   211)      4211.134 1  Rx        0183 -  8    01 3E 00 AC 00 00 00 00 
   212)      4231.101 1  Rx        0183 -  8    02 F1 00 2C 00 00 00 00 
   213)      4251.197 1  Rx        0183 -  8    00 08 07 0B 00 0F 0E 00 
   214)      4271.132 1  Rx        0183 -  8    01 44 00 CF 00 00 00 00 
   215)      4291.185 1  Rx        0183 -  8    00 08 07 03 00 0F 0E 00 
   216)      4311.110 1  Rx        0183 -  8    01 47 00 D3 00 00 00 00 
   217)      4331.120 1  Rx        0183 -  8    02 F1 00 2C 00 00 00 00 
   218)      4351.216 1  Rx        0183 -  8    00 08 07 34 00 0F 0E 00 
   219)      4371.098 1  Rx        0183 -  8    01 44 00 D5 00 00 00 00 
   220)      4391.151 1  Rx        0183 -  8    00 08 07 19 00 0F 0E 00 
   221)      4411.119 1  Rx        0183 -  8    01 44 00 D4 00 00 00 00 
   222)      4431.130 1  Rx        0183 -  8    02 F1 00 2C 00 00 00 00 
   223)      4451.183 1  Rx        0183 -  8    00 08 07 08 00 0F 0E 00 
   224)      4471.108 1  Rx        0183 -  8    01 3B 00 D4 00 00 00 00 
   225)      4491.161 1  Rx        0183 -  8    00 08 07 0B 00 0F 0E 00 
   226)      4511.086 1  Rx        0183 -  8    01 44 00 DD 00 00 00 00 
   227)      4531.096 1  Rx        0183 -  8    02 F1 00 2C 00 00 00 00 
   228)      4551.192 1  Rx        0183 -  8    00 08 07 12 00 0F 0E 00 
   229)      4571.117 1  Rx        0183 -  8    01 35 00 DE 00 00 00 00 
   230)      4591.170 1  Rx        0183 -  8    00 08 07 03 00 0F 0E 00 
   231)      4611.095 1  Rx        0183 -  8    01 38 00 DD 00 00 00 00 
   232)      4631.105 1  Rx        0183 -  8    02 F1 00 2C 00 00 00 00 
   233)      4651.201 1  Rx        0183 -  8    00 08 07 3C 00 0F 0E 00 
   234)      4671.083 1  Rx        0183 -  8    01 38 00 DD 00 00 00 00 
   235)      4691.179 1  Rx        0183 -  8    00 08 07 04 00 0F 0E 00 
   236)      4711.104 1  Rx        0183 -  8    01 35 00 DD 00 00 00 00 
   237)      4731.114 1  Rx        0183 -  8    02 F1 00 28 00 00 00 00 
   238)      4751.167 1  Rx        0183 -  8    00 08 07 08 00 0F 0E 00 
   239)      4771.092 1  Rx        0183 -  8    01 38 00 DD 00 00 00 00 
   240)      4791.145 1  Rx        0183 -  8    00 08 07 0A 00 0F 0E 00 
   241)      4811.070 1  Rx        0183 -  8    01 35 00 DE 00 00 00 00 
   242)      4831.081 1  Rx        0183 -  8    02 F1 00 2A 00 00 00 00 
   243)      4851.176 1  Rx        0183 -  8    00 08 07 07 00 0F 0E 00 
   244)      4871.101 1  Rx        0183 -  8    01 44 00 DE 00 00 00 00 
   245)      4891.154 1  Rx        0183 -  8    00 08 07 06 00 0F 0E 00 
   246)      4911.079 1  Rx        0183 -  8    01 38 00 DD 00 00 00 00 
   247)      4931.090 1  Rx        0183 -  8    02 F2 00 2F 00 00 00 00 
   248)      4951.185 1  Rx        0183 -  8    00 08 07 47 00 0F 0E 00 
   249)      4971.068 1  Rx        0183 -  8    01 44 00 DE 00 00 00 00 
   250)      4991.163 1  Rx        0183 -  8    00 08 07 03 00 0F 0E 00 
   251)      5011.088 1  Rx        0183 -  8    01 47 00 E7 00 00 00 00 
   252)      5031.056 1  Rx        0183 -  8    02 F1 00 2A 00 00 00 00 
   253)      5051.152 1  Rx        0183 -  8    00 08 07 0B 00 0F 0E 00 
   254)      5071.077 1  Rx        0183 -  8    01 44 00 E7 00 00 00 00 
   255)      5091.130 1  Rx        0183 -  8    00 08 07 40 00 0F 0E 00 
   256)      5111.055 1  Rx        0183 -  8    01 44 00 E7 00 00 00 00 
   257)      5131.065 1  Rx        0183 -  8    02 F1 00 2C 00 00 00 00 
   258)      5151.161 1  Rx        0183 -  8    00 08 07 06 00 0F 0E 00 
   259)      5171.086 1  Rx        0183 -  8    01 2B 00 E7 00 00 00 00 
   260)      5191.139 1  Rx        0183 -  8    00 08 07 03 00 0F 0E 00 
   261)      5211.064 1  Rx        0183 -  8    01 47 00 E8 00 00 00 00 
   262)      5231.074 1  Rx        0183 -  8    02 F1 00 2F 00 00 00 00 
   263)      5251.170 1  Rx        0183 -  8    00 08 07 07 00 0F 0E 00 
   264)      5271.030 1  Rx        0183 -  8    01 2E 00 F9 00 00 00 00 
   265)      5291.126 1  Rx        0183 -  8    00 08 07 05 00 0F 0E 00 
   266)      5311.051 1  Rx        0183 -  8    01 32 00 FB 00 00 00 00 
   267)      5331.019 1  Rx        0183 -  8    02 F2 00 2F 00 00 00 00 
   268)      5351.114 1  Rx        0183 -  8    00 08 07 0A 00 0F 0E 00 
   269)      5371.039 1  Rx        0183 -  8    01 35 00 FA 00 00 00 00 
   270)      5391.093 1  Rx        0183 -  8    00 08 07 44 00 0F 0E 00 
   271)      5411.060 1  Rx        0183 -  8    01 2E 00 F9 00 00 00 00 
   272)      5431.028 1  Rx        0183 -  8    02 F2 00 2C 00 00 00 00 
   273)      5451.124 1  Rx        0183 -  8    00 08 07 04 00 0F 0E 00 
   274)      5471.049 1  Rx        0183 -  8    01 32 00 11 01 00 00 00 
   275)      5491.102 1  Rx        0183 -  8    00 08 07 10 00 0F 0E 00 
   276)      5511.027 1  Rx        0183 -  8    01 2B 00 14 01 00 00 00 
   277)      5531.037 1  Rx        0183 -  8    02 F1 00 25 00 00 00 00 
   278)      5551.133 1  Rx        0183 -  8    00 08 07 09 00 0F 0E 00 
   279)      5571.015 1  Rx        0183 -  8    01 35 00 14 01 00 00 00 
   280)      5591.111 1  Rx        0183 -  8    00 08 07 05 00 0F 0E 00 
   281)      5611.036 1  Rx        0183 -  8    01 2E 00 15 01 00 00 00 
   282)      5631.003 1  Rx        0183 -  8    02 F2 00 2A 00 00 00 00 
   283)      5651.099 1  Rx        0183 -  8    00 08 07 22 00 0F 0E 00 
   284)      5671.024 1  Rx        0183 -  8    01 38 00 18 01 00 00 00 
   285)      5691.077 1  Rx        0183 -  8    00 08 07 7A 00 0F 0E 00 
   286)      5711.002 1  Rx        0183 -  8    01 2E 00 25 01 00 00 00 
   287)      5731.013 1  Rx        0183 -  8    02 F2 00 2C 00 00 00 00 
   288)      5751.108 1  Rx        0183 -  8    00 08 07 09 00 0F 0E 00 
   289)      5771.033 1  Rx        0183 -  8    01 28 00 2B 01 00 00 00 
   290)      5791.086 1  Rx        0183 -  8    00 08 07 14 00 0F 0E 00 
   291)      5811.011 1  Rx        0183 -  8    01 2B 00 2C 01 00 00 00 
   292)      5831.022 1  Rx        0183 -  8    02 F2 00 23 00 00 00 00 
   293)      5851.117 1  Rx        0183 -  8    00 08 07 09 00 0F 0E 00 
   294)      5871.000 1  Rx        0183 -  8    01 28 00 2C 01 00 00 00 
   295)      5891.095 1  Rx        0183 -  8    00 08 07 0E 00 0F 0E 00 
   296)      5911.020 1  Rx        0183 -  8    01 2B 00 2C 01 00 00 00 
   297)      5930.988 1  Rx        0183 -  8    02 F2 00 2C 00 00 00 00 
   298)      5951.084 1  Rx        0183 -  8    00 08 07 26 00 0F 0E 00 
   299)      5971.009 1  Rx        0183 -  8    01 3B 00 34 01 00 00 00 
   300)      5991.104 1  Rx        0183 -  8    00 08 07 28 00 0F 0E 00 
   301)      6010.987 1  Rx        0183 -  8    01 2B 00 35 01 00 00 00 
   302)      6030.997 1  Rx        0183 -  8    02 F2 00 2C 00 00 00 00 
   303)      6051.093 1  Rx        0183 -  8    00 08 07 46 00 0F 0E 00 
   304)      6071.018 1  Rx        0183 -  8    01 32 00 30 01 00 00 00 
   305)      6091.071 1  Rx        0183 -  8    00 08 07 19 00 0F 0E 00 
   306)      6110.996 1  Rx        0183 -  8    01 44 00 36 01 00 00 00 
   307)      6131.006 1  Rx        0183 -  8    02 F2 00 2C 00 00 00 00 
   308)      6151.102 1  Rx        0183 -  8    00 08 07 0A 00 0F 0E 00 
   309)      6170.984 1  Rx        0183 -  8    01 3B 00 31 01 00 00 00 
   310)      6191.080 1  Rx        0183 -  8    00 08 07 0D 00 0F 0E 00 
   311)      6211.005 1  Rx        0183 -  8    01 2E 00 2F 01 00 00 00 
   312)      6230.973 1  Rx        0183 -  8    02 F2 00 2C 00 00 00 00 
   313)      6251.068 1  Rx        0183 -  8    00 08 07 25 00 0F 0E 00 
   314)      6271.020 1  Rx        0183 -  8    01 32 00 30 01 00 00 00 
   315)      6291.073 1  Rx        0183 -  8    00 08 07 0C 00 0F 0E 00 
   316)      6311.041 1  Rx        0183 -  8    01 4D 00 31 01 00 00 00 
   317)      6331.009 1  Rx        0183 -  8    02 F1 00 28 00 00 00 00 
   318)      6351.105 1  Rx        0183 -  8    00 08 07 4F 00 0F 0E 00 
   319)      6371.030 1  Rx        0183 -  8    01 28 00 35 01 00 00 00 
   320)      6391.083 1  Rx        0183 -  8    00 08 07 16 00 0F 0E 00 
   321)      6411.008 1  Rx        0183 -  8    01 2B 00 30 01 00 00 00 
   322)      6431.018 1  Rx        0183 -  8    02 F2 00 2A 00 00 00 00 
   323)      6451.114 1  Rx        0183 -  8    00 08 07 0F 00 0F 0E 00 
   324)      6470.996 1  Rx        0183 -  8    01 2B 00 49 01 00 00 00 
   325)      6491.092 1  Rx        0183 -  8    00 08 07 0F 00 0F 0E 00 
   326)      6511.017 1  Rx        0183 -  8    01 25 00 49 01 00 00 00 
   327)      6530.984 1  Rx        0183 -  8    02 F2 00 2A 00 00 00 00 
   328)      6551.080 1  Rx        0183 -  8    00 08 07 26 00 0F 0E 00 
   329)      6571.005 1  Rx        0183 -  8    01 28 00 48 01 00 00 00 
   330)      6591.058 1  Rx        0183 -  8    00 08 07 0A 00 0F 0E 00 
   331)      6610.983 1  Rx        0183 -  8    01 25 00 48 01 00 00 00 
   332)      6630.993 1  Rx        0183 -  8    02 F2 00 2C 00 00 00 00 
   333)      6651.089 1  Rx        0183 -  8    00 08 07 5D 00 0F 0E 00 
   334)      6671.014 1  Rx        0183 -  8    01 92 00 63 01 00 00 00 
   335)      6691.067 1  Rx        0183 -  8    00 08 07 14 00 0F 0E 00 
   336)      6710.992 1  Rx        0183 -  8    01 3B 00 65 01 00 00 00 
   337)      6731.003 1  Rx        0183 -  8    02 F1 00 2A 00 00 00 00 
   338)      6751.098 1  Rx        0183 -  8    00 08 07 0D 00 0F 0E 00 
   339)      6770.981 1  Rx        0183 -  8    01 A1 00 61 01 00 00 00 
   340)      6791.076 1  Rx        0183 -  8    00 08 07 0E 00 0F 0E 00 
   341)      6811.001 1  Rx        0183 -  8    01 A1 00 66 01 00 00 00 
   342)      6830.969 1  Rx        0183 -  8    02 F1 00 2A 00 00 00 00 
   343)      6851.065 1  Rx        0183 -  8    00 08 07 09 00 0F 0E 00 
   344)      6870.990 1  Rx        0183 -  8    01 92 00 62 01 00 00 00 
   345)      6891.043 1  Rx        0183 -  8    00 08 07 0B 00 0F 0E 00 
   346)      6910.968 1  Rx        0183 -  8    01 B1 00 72 01 00 00 00 
   347)      6930.978 1  Rx        0183 -  8    02 F2 00 2A 00 00 00 00 
   348)      6951.074 1  Rx        0183 -  8    00 08 07 68 00 0F 0E 00 
   349)      6970.999 1  Rx        0183 -  8    01 AE 00 75 01 00 00 00 
   350)      6991.052 1  Rx        0183 -  8    00 08 07 11 00 0F 0E 00 
   351)      7010.977 1  Rx        0183 -  8    01 B7 00 76 01 00 00 00 
   352)      7030.987 1  Rx        0183 -  8    02 F1 00 2C 00 00 00 00 
   353)      7051.083 1  Rx        0183 -  8    00 08 07 13 00 0F 0E 00 
   354)      7070.965 1  Rx        0183 -  8    01 4D 00 76 01 00 00 00 
   355)      7091.061 1  Rx        0183 -  8    00 08 07 63 00 0F 0E 00 
   356)      7110.986 1  Rx        0183 -  8    01 B1 00 76 01 00 00 00 
   357)      7130.954 1  Rx        0183 -  8    02 F1 00 2A 00 00 00 00 
   358)      7151.049 1  Rx        0183 -  8    00 08 07 07 00 0F 0E 00 
   359)      7170.974 1  Rx        0183 -  8    01 4A 00 82 01 00 00 00 
   360)      7191.027 1  Rx        0183 -  8    00 08 07 0B 00 0F 0E 00 
   361)      7210.952 1  Rx        0183 -  8    01 6C 00 81 01 00 00 00 
   362)      7230.963 1  Rx        0183 -  8    02 F2 00 2A 00 00 00 00 
   363)      7251.058 1  Rx        0183 -  8    00 08 07 09 00 0F 0E 00 
   364)      7270.972 1  Rx        0183 -  8    01 4D 00 82 01 00 00 00 
   365)      7291.025 1  Rx        0183 -  8    00 08 07 10 00 0F 0E 00 
   366)      7310.951 1  Rx        0183 -  8    01 4A 00 82 01 00 00 00 
   367)      7330.961 1  Rx        0183 -  8    02 F2 00 2C 00 00 00 00 
   368)      7351.057 1  Rx        0183 -  8    00 08 07 11 00 0F 0E 00 
   369)      7370.939 1  Rx        0183 -  8    01 95 00 82 01 00 00 00 
   370)      7391.035 1  Rx        0183 -  8    00 08 07 73 00 0F 0E 00 
   371)      7410.960 1  Rx        0183 -  8    01 4D 00 8C 01 00 00 00 
   372)      7430.927 1  Rx        0183 -  8    02 F1 00 2A 00 00 00 00 
   373)      7451.023 1  Rx        0183 -  8    00 08 07 07 00 0F 0E 00 
   374)      7470.948 1  Rx        0183 -  8    01 BA 00 88 01 00 00 00 
   375)      7491.001 1  Rx        0183 -  8    00 08 07 10 00 0F 0E 00 
   376)      7510.926 1  Rx        0183 -  8    01 DC 00 8B 01 00 00 00 
   377)      7530.936 1  Rx        0183 -  8    02 F1 00 2C 00 00 00 00 
   378)      7551.032 1  Rx        0183 -  8    00 08 07 0A 00 0F 0E 00 
   379)      7570.957 1  Rx        0183 -  8    01 C9 00 88 01 00 00 00 
   380)      7591.010 1  Rx        0183 -  8    00 08 07 0E 00 0F 0E 00 
   381)      7610.935 1  Rx        0183 -  8    01 D6 00 88 01 00 00 00 
   382)      7630.946 1  Rx        0183 -  8    02 F1 00 2F 00 00 00 00 
   383)      7651.041 1  Rx        0183 -  8    00 08 07 48 00 0F 0E 00 
   384)      7670.924 1  Rx        0183 -  8    01 AA 00 89 01 00 00 00 
   385)      7691.019 1  Rx        0183 -  8    00 08 07 9C 00 0F 0E 00 
   386)      7710.944 1  Rx        0183 -  8    01 DC 00 8A 01 00 00 00 
   387)      7730.912 1  Rx        0183 -  8    02 F1 00 2F 00 00 00 00 
   388)      7751.008 1  Rx        0183 -  8    00 08 07 06 00 0F 0E 00 
   389)      7770.933 1  Rx        0183 -  8    01 4A 00 89 01 00 00 00 
   390)      7790.986 1  Rx        0183 -  8    00 08 07 11 00 0F 0E 00 
   391)      7810.911 1  Rx        0183 -  8    01 A7 00 8A 01 00 00 00 
   392)      7830.921 1  Rx        0183 -  8    02 F0 00 2A 00 00 00 00 
   393)      7850.974 1  Rx        0183 -  8    00 08 07 0C 00 0F 0E 00 
   394)      7870.942 1  Rx        0183 -  8    01 4A 00 8A 01 00 00 00 
   395)      7890.995 1  Rx        0183 -  8    00 08 07 0B 00 0F 0E 00 
   396)      7910.920 1  Rx        0183 -  8    01 70 00 8A 01 00 00 00 
   397)      7930.930 1  Rx        0183 -  8    02 F1 00 2A 00 00 00 00 
   398)      7951.026 1  Rx        0183 -  8    00 08 07 41 00 0F 0E 00 
   399)      7970.908 1  Rx        0183 -  8    01 69 00 8C 01 00 00 00 
   400)      7991.004 1  Rx        0183 -  8    00 08 07 71 00 0F 0E 00 
   401)      8010.929 1  Rx        0183 -  8    01 4D 00 8B 01 00 00 00 
   402)      8030.939 1  Rx        0183 -  8    02 F1 00 2C 00 00 00 00 
   403)      8050.992 1  Rx        0183 -  8    00 08 07 47 00 0F 0E 00 
   404)      8070.917 1  Rx        0183 -  8    01 C0 00 8B 01 00 00 00 
   405)      8090.970 1  Rx        0183 -  8    00 08 07 16 00 0F 0E 00 
   406)      8110.895 1  Rx        0183 -  8    01 4D 00 93 01 00 00 00 
   407)      8130.906 1  Rx        0183 -  8    02 F1 00 2C 00 00 00 00 
   408)      8151.001 1  Rx        0183 -  8    00 08 07 0C 00 0F 0E 00 
   409)      8170.926 1  Rx        0183 -  8    01 DF 00 95 01 00 00 00 
   410)      8190.979 1  Rx        0183 -  8    00 08 07 0B 00 0F 0E 00 
   411)      8210.904 1  Rx        0183 -  8    01 BD 00 95 01 00 00 00 
   412)      8230.915 1  Rx        0183 -  8    02 F1 00 2A 00 00 00 00 
   413)      8251.010 1  Rx        0183 -  8    00 08 07 42 00 0F 0E 00 
   414)      8270.879 1  Rx        0183 -  8    01 CD 00 93 01 00 00 00 
   415)      8290.975 1  Rx        0183 -  8    00 08 07 0C 00 0F 0E 00 
   416)      8310.900 1  Rx        0183 -  8    01 C6 00 95 01 00 00 00 
   417)      8330.867 1  Rx        0183 -  8    02 F1 00 2A 00 00 00 00 
   418)      8350.963 1  Rx        0183 -  8    00 08 07 4C 00 0F 0E 00 
   419)      8370.888 1  Rx        0183 -  8    01 FB 00 A5 01 00 00 00 
   420)      8390.941 1  Rx        0183 -  8    00 08 07 16 00 0F 0E 00 
   421)      8410.866 1  Rx        0183 -  8    01 DF 00 A5 01 00 00 00 
   422)      8430.876 1  Rx        0183 -  8    02 F1 00 2A 00 00 00 00 
   423)      8450.972 1  Rx        0183 -  8    00 08 07 0F 00 0F 0E 00 
   424)      8470.897 1  Rx        0183 -  8    01 47 00 A6 01 00 00 00 
   425)      8490.950 1  Rx        0183 -  8    00 08 07 0D 00 0F 0E 00 
   426)      8510.875 1  Rx        0183 -  8    01 F2 00 A6 01 00 00 00 
   427)      8530.885 1  Rx        0183 -  8    02 F1 00 28 00 00 00 00 
   428)      8550.981 1  Rx        0183 -  8    00 08 07 44 00 0F 0E 00 
   429)      8570.863 1  Rx        0183 -  8    01 57 00 A7 01 00 00 00 
   430)      8590.959 1  Rx        0183 -  8    00 08 07 0D 00 0F 0E 00 
   431)      8610.884 1  Rx        0183 -  8    01 4A 00 AE 01 00 00 00 
   432)      8630.852 1  Rx        0183 -  8    02 F1 00 2A 00 00 00 00 
   433)      8650.948 1  Rx        0183 -  8    00 08 07 52 00 0F 0E 00 
   434)      8670.873 1  Rx        0183 -  8    01 44 00 B1 01 00 00 00 
   435)      8690.926 1  Rx        0183 -  8    00 08 07 22 00 0F 0E 00 
   436)      8710.851 1  Rx        0183 -  8    01 54 00 B2 01 00 00 00 
   437)      8730.861 1  Rx        0183 -  8    02 F1 00 2A 00 00 00 00 
   438)      8750.957 1  Rx        0183 -  8    00 08 07 11 00 0F 0E 00 
   439)      8770.882 1  Rx        0183 -  8    01 4A 00 B0 01 00 00 00 
   440)      8790.935 1  Rx        0183 -  8    00 08 07 0E 00 0F 0E 00 
   441)      8810.860 1  Rx        0183 -  8    01 4D 00 B0 01 00 00 00 
   442)      8830.870 1  Rx        0183 -  8    02 F1 00 28 00 00 00 00 
   443)      8850.966 1  Rx        0183 -  8    00 08 07 03 00 0F 0E 00 
   444)      8870.848 1  Rx        0183 -  8    01 E5 00 CB 01 00 00 00 
   445)      8890.944 1  Rx        0183 -  8    00 08 07 10 00 0F 0E 00 
   446)      8910.869 1  Rx        0183 -  8    01 3E 00 CB 01 00 00 00 
   447)      8930.879 1  Rx        0183 -  8    02 F1 00 2C 00 00 00 00 
   448)      8950.932 1  Rx        0183 -  8    00 08 07 5F 00 0F 0E 00 
   449)      8970.857 1  Rx        0183 -  8    01 EF 00 CC 01 00 00 00 
   450)      8990.910 1  Rx        0183 -  8    00 08 07 26 00 0F 0E 00 
   451)      9010.878 1  Rx        0183 -  8    01 F5 00 C9 01 00 00 00 
   452)      9030.846 1  Rx        0183 -  8    02 F1 00 2F 00 00 00 00 
   453)      9050.899 1  Rx        0183 -  8    00 08 07 11 00 0F 0E 00 
   454)      9070.866 1  Rx        0183 -  8    01 DF 00 D2 01 00 00 00 
   455)      9090.919 1  Rx        0183 -  8    00 08 07 BB 00 0F 0E 00 
   456)      9110.844 1  Rx        0183 -  8    01 E8 00 D5 01 00 00 00 
   457)      9130.855 1  Rx        0183 -  8    02 F2 00 2C 00 00 00 00 
   458)      9150.950 1  Rx        0183 -  8    00 08 07 07 00 0F 0E 00 
   459)      9170.833 1  Rx        0183 -  8    01 47 00 D4 01 00 00 00 
   460)      9190.928 1  Rx        0183 -  8    00 08 07 0B 00 0F 0E 00 
   461)      9210.853 1  Rx        0183 -  8    01 F8 00 D5 01 00 00 00 
   462)      9230.821 1  Rx        0183 -  8    02 F2 00 1E 00 00 00 00 
   463)      9250.917 1  Rx        0183 -  8    00 08 07 0A 00 0F 0E 00 
   464)      9270.807 1  Rx        0183 -  8    01 54 00 D6 01 00 00 00 
   465)      9290.860 1  Rx        0183 -  8    00 08 07 26 00 0F 0E 00 
   466)      9310.785 1  Rx        0183 -  8    01 3B 00 DB 01 00 00 00 
   467)      9330.795 1  Rx        0183 -  8    02 F1 00 2F 00 00 00 00 
   468)      9350.891 1  Rx        0183 -  8    00 08 07 12 00 0F 0E 00 
   469)      9370.816 1  Rx        0183 -  8    01 3B 00 DD 01 00 00 00 
   470)      9390.869 1  Rx        0183 -  8    00 08 07 C0 00 0F 0E 00 
   471)      9410.794 1  Rx        0183 -  8    01 44 00 DD 01 00 00 00 
   472)      9430.804 1  Rx        0183 -  8    02 F1 00 2A 00 00 00 00 
   473)      9450.900 1  Rx        0183 -  8    00 08 07 03 00 0F 0E 00 
   474)      9470.782 1  Rx        0183 -  8    01 3E 00 DC 01 00 00 00 
   475)      9490.878 1  Rx        0183 -  8    00 08 07 11 00 0F 0E 00 
   476)      9510.803 1  Rx        0183 -  8    01 3B 00 DE 01 00 00 00 
   477)      9530.771 1  Rx        0183 -  8    02 F1 00 25 00 00 00 00 
   478)      9550.867 1  Rx        0183 -  8    00 08 07 0C 00 0F 0E 00 
   479)      9570.792 1  Rx        0183 -  8    01 E2 00 DC 01 00 00 00 
   480)      9590.845 1  Rx        0183 -  8    00 08 07 1F 00 0F 0E 00 
   481)      9610.770 1  Rx        0183 -  8    01 47 00 DE 01 00 00 00 
   482)      9630.780 1  Rx        0183 -  8    02 F2 00 28 00 00 00 00 
   483)      9650.876 1  Rx        0183 -  8    00 08 07 73 00 0F 0E 00 
   484)      9670.801 1  Rx        0183 -  8    01 DF 00 DE 01 00 00 00 
   485)      9690.854 1  Rx        0183 -  8    00 08 07 9C 00 0F 0E 00 
   486)      9710.779 1  Rx        0183 -  8    01 FB 00 DF 01 00 00 00 
   487)      9730.789 1  Rx        0183 -  8    02 F2 00 2C 00 00 00 00 
   488)      9750.885 1  Rx        0183 -  8    00 08 07 04 00 0F 0E 00 
   489)      9770.767 1  Rx        0183 -  8    01 F8 00 DD 01 00 00 00 
   490)      9790.863 1  Rx        0183 -  8    00 08 07 12 00 0F 0E 00 
   491)      9810.788 1  Rx        0183 -  8    01 F8 00 DE 01 00 00 00 
   492)      9830.755 1  Rx        0183 -  8    02 F2 00 2A 00 00 00 00 
   493)      9850.851 1  Rx        0183 -  8    00 08 07 09 00 0F 0E 00 
   494)      9870.776 1  Rx        0183 -  8    01 F5 00 DC 01 00 00 00 
   495)      9890.829 1  Rx        0183 -  8    00 08 07 0D 00 0F 0E 00 
   496)      9910.754 1  Rx        0183 -  8    01 EF 00 DE 01 00 00 00 
   497)      9930.765 1  Rx        0183 -  8    02 F2 00 2C 00 00 00 00 
   498)      9950.860 1  Rx        0183 -  8    00 08 07 71 00 0F 0E 00 
   499)      9970.785 1  Rx        0183 -  8    01 38 00 DC 01 00 00 00 
   500)      9990.838 1  Rx        0183 -  8    00 08 07 C8 00 0F 0E 00 
   501)     10010.763 1  Rx        0183 -  8    01 07 01 DF 01 00 00 00 
   502)     10030.774 1  Rx        0183 -  8    02 F1 00 2A 00 00 00 00 
   503)     10050.869 1  Rx        0183 -  8    00 08 07 46 00 0F 0E 00 
   504)     10070.752 1  Rx        0183 -  8    01 41 00 DC 01 00 00 00 
   505)     10090.805 1  Rx        0183 -  8    00 08 07 15 00 0F 0E 00 
   506)     10110.772 1  Rx        0183 -  8    01 3E 00 DF 01 00 00 00 
   507)     10130.740 1  Rx        0183 -  8    02 F2 00 2A 00 00 00 00 
   508)     10150.836 1  Rx        0183 -  8    00 08 07 0B 00 0F 0E 00 
   509)     10170.761 1  Rx        0183 -  8    01 38 00 DC 01 00 00 00 
   510)     10190.814 1  Rx        0183 -  8    00 08 07 0F 00 0F 0E 00 
   511)     10210.782 1  Rx        0183 -  8    01 44 00 DF 01 00 00 00 
   512)     10230.749 1  Rx        0183 -  8    02 F2 00 2A 00 00 00 00 
   513)     10250.845 1  Rx        0183 -  8    00 08 07 6B 00 0F 0E 00 
   514)     10270.800 1  Rx        0183 -  8    01 D9 00 EB 01 00 00 00 
   515)     10290.853 1  Rx        0183 -  8    00 08 07 14 00 0F 0E 00 
   516)     10310.778 1  Rx        0183 -  8    01 44 00 EE 01 00 00 00 
   517)     10330.788 1  Rx        0183 -  8    02 F2 00 2A 00 00 00 00 
   518)     10350.884 1  Rx        0183 -  8    00 08 07 4F 00 0F 0E 00 
   519)     10370.766 1  Rx        0183 -  8    01 E5 00 EE 01 00 00 00 
   520)     10390.862 1  Rx        0183 -  8    00 08 07 14 00 0F 0E 00 
   521)     10410.787 1  Rx        0183 -  8    01 F2 00 ED 01 00 00 00 
   522)     10430.755 1  Rx        0183 -  8    02 F2 00 2A 00 00 00 00 
   523)     10450.850 1  Rx        0183 -  8    00 08 07 15 00 0F 0E 00 
   524)     10470.775 1  Rx        0183 -  8    01 E8 00 EF 01 00 00 00 
   525)     10490.828 1  Rx        0183 -  8    00 08 07 0A 00 0F 0E 00 
   526)     10510.754 1  Rx        0183 -  8    01 E2 00 F7 01 00 00 00 
   527)     10530.764 1  Rx        0183 -  8    02 F1 00 2F 00 00 00 00 
   528)     10550.817 1  Rx        0183 -  8    00 08 07 6F 00 0F 0E 00 
   529)     10570.785 1  Rx        0183 -  8    01 D9 00 FB 01 00 00 00 
   530)     10590.838 1  Rx        0183 -  8    00 08 07 15 00 0F 0E 00 
   531)     10610.763 1  Rx        0183 -  8    01 F8 00 FA 01 00 00 00 
   532)     10630.773 1  Rx        0183 -  8    02 F1 00 28 00 00 00 00 
   533)     10650.869 1  Rx        0183 -  8    00 08 07 52 00 0F 0E 00 
   534)     10670.751 1  Rx        0183 -  8    01 47 00 F9 01 00 00 00 
   535)     10690.847 1  Rx        0183 -  8    00 08 07 3C 00 0F 0E 00 
   536)     10710.772 1  Rx        0183 -  8    01 E2 00 F9 01 00 00 00 
   537)     10730.739 1  Rx        0183 -  8    02 F2 00 2C 00 00 00 00 
   538)     10750.835 1  Rx        0183 -  8    00 08 07 16 00 0F 0E 00 
   539)     10770.760 1  Rx        0183 -  8    01 51 00 07 02 00 00 00 
   540)     10790.813 1  Rx        0183 -  8    00 08 07 13 00 0F 0E 00 
   541)     10810.738 1  Rx        0183 -  8    01 AE 00 0D 02 00 00 00 
   542)     10830.749 1  Rx        0183 -  8    02 F2 00 2C 00 00 00 00 
   543)     10850.802 1  Rx        0183 -  8    00 08 07 0A 00 0F 0E 00 
   544)     10870.769 1  Rx        0183 -  8    01 47 00 09 02 00 00 00 
   545)     10890.822 1  Rx        0183 -  8    00 08 07 13 00 0F 0E 00 
   546)     10910.747 1  Rx        0183 -  8    01 41 00 09 02 00 00 00 
   547)     10930.758 1  Rx        0183 -  8    02 F2 00 2A 00 00 00 00 
   548)     10950.853 1  Rx        0183 -  8    00 08 07 58 00 0F 0E 00 
   549)     10970.736 1  Rx        0183 -  8    01 4A 00 07 02 00 00 00 
   550)     10990.831 1  Rx        0183 -  8    00 08 07 3D 00 0F 0E 00 
   551)     11010.756 1  Rx        0183 -  8    01 51 00 1A 02 00 00 00 
   552)     11030.724 1  Rx        0183 -  8    02 F1 00 2A 00 00 00 00 
   553)     11050.862 1  Rx        0183 -  8    00 08 07 18 00 0F 0E 00 
   554)     11070.745 1  Rx        0183 -  8    01 D9 00 1A 02 00 00 00 
   555)     11090.840 1  Rx        0183 -  8    00 08 07 88 00 0F 0E 00 
   556)     11110.723 1  Rx        0183 -  8    01 47 00 1A 02 00 00 00 
   557)     11130.733 1  Rx        0183 -  8    02 F1 00 2A 00 00 00 00 
   558)     11150.829 1  Rx        0183 -  8    00 08 07 0E 00 0F 0E 00 
   559)     11170.754 1  Rx        0183 -  8    01 D6 00 1F 02 00 00 00 
   560)     11190.807 1  Rx        0183 -  8    00 08 07 13 00 0F 0E 00 
   561)     11210.732 1  Rx        0183 -  8    01 E2 00 18 02 00 00 00 
   562)     11230.742 1  Rx        0183 -  8    02 F1 00 2A 00 00 00 00 
   563)     11250.838 1  Rx        0183 -  8    00 08 07 0B 00 0F 0E 00 
   564)     11270.750 1  Rx        0183 -  8    01 CD 00 1F 02 00 00 00 
   565)     11290.846 1  Rx        0183 -  8    00 08 07 3F 00 0F 0E 00 
   566)     11310.771 1  Rx        0183 -  8    01 D3 00 1E 02 00 00 00 
   567)     11330.739 1  Rx        0183 -  8    02 F1 00 2A 00 00 00 00 
   568)     11350.834 1  Rx        0183 -  8    00 08 07 18 00 0F 0E 00 
   569)     11370.759 1  Rx        0183 -  8    01 4D 00 1E 02 00 00 00 
   570)     11390.812 1  Rx        0183 -  8    00 08 07 90 00 0F 0E 00 
   571)     11410.780 1  Rx        0183 -  8    01 D6 00 1F 02 00 00 00 
   572)     11430.748 1  Rx        0183 -  8    02 F1 00 2C 00 00 00 00 
   573)     11450.843 1  Rx        0183 -  8    00 08 07 0B 00 0F 0E 00 
   574)     11470.769 1  Rx        0183 -  8    01 51 00 1A 02 00 00 00 
   575)     11490.822 1  Rx        0183 -  8    00 08 07 14 00 0F 0E 00 
   576)     11510.747 1  Rx        0183 -  8    01 47 00 1E 02 00 00 00 
   577)     11530.757 1  Rx        0183 -  8    02 F1 00 28 00 00 00 00 
   578)     11550.853 1  Rx        0183 -  8    00 08 07 0A 00 0F 0E 00 
   579)     11570.735 1  Rx        0183 -  8    01 C6 00 19 02 00 00 00 
   580)     11590.831 1  Rx        0183 -  8    00 08 07 3B 00 0F 0E 00 
   581)     11610.756 1  Rx        0183 -  8    01 51 00 1A 02 00 00 00 
   582)     11630.723 1  Rx        0183 -  8    02 F1 00 2A 00 00 00 00 
   583)     11650.819 1  Rx        0183 -  8    00 08 07 50 00 0F 0E 00 
   584)     11670.744 1  Rx        0183 -  8    01 4A 00 1A 02 00 00 00 
   585)     11690.797 1  Rx        0183 -  8    00 08 07 99 00 0F 0E 00 
   586)     11710.722 1  Rx        0183 -  8    01 51 00 19 02 00 00 00 
   587)     11730.732 1  Rx        0183 -  8    02 F1 00 2C 00 00 00 00 
   588)     11750.828 1  Rx        0183 -  8    00 08 07 0A 00 0F 0E 00 
   589)     11770.753 1  Rx        0183 -  8    01 DF 00 1A 02 00 00 00 
   590)     11790.806 1  Rx        0183 -  8    00 08 07 12 00 0F 0E 00 
   591)     11810.731 1  Rx        0183 -  8    01 4D 00 19 02 00 00 00 
   592)     11830.742 1  Rx        0183 -  8    02 F1 00 2A 00 00 00 00 
   593)     11850.837 1  Rx        0183 -  8    00 08 07 09 00 0F 0E 00 
   594)     11870.720 1  Rx        0183 -  8    01 DC 00 20 02 00 00 00 
   595)     11890.815 1  Rx        0183 -  8    00 08 07 07 00 0F 0E 00 
   596)     11910.740 1  Rx        0183 -  8    01 D0 00 1A 02 00 00 00 
   597)     11930.708 1  Rx        0183 -  8    02 F1 00 2C 00 00 00 00 
   598)     11950.804 1  Rx        0183 -  8    00 08 07 25 00 0F 0E 00 
   599)     11970.729 1  Rx        0183 -  8    01 E5 00 29 02 00 00 00 
   600)     11990.782 1  Rx        0183 -  8    00 08 07 95 00 0F 0E 00 
   601)     12010.749 1  Rx        0183 -  8    01 CD 00 29 02 00 00 00 
   602)     12030.717 1  Rx        0183 -  8    02 F1 00 2C 00 00 00 00 
   603)     12050.770 1  Rx        0183 -  8    00 08 07 34 00 0F 0E 00 
   604)     12070.738 1  Rx        0183 -  8    01 4A 00 28 02 00 00 00 
   605)     12090.791 1  Rx        0183 -  8    00 08 07 12 00 0F 0E 00 
   606)     12110.716 1  Rx        0183 -  8    01 D9 00 29 02 00 00 00 
   607)     12130.726 1  Rx        0183 -  8    02 F1 00 2C 00 00 00 00 
   608)     12150.822 1  Rx        0183 -  8    00 08 07 08 00 0F 0E 00 
   609)     12170.704 1  Rx        0183 -  8    01 4A 00 23 02 00 00 00 
   610)     12190.800 1  Rx        0183 -  8    00 08 07 07 00 0F 0E 00 
   611)     12210.725 1  Rx        0183 -  8    01 DC 00 39 02 00 00 00 
   612)     12230.735 1  Rx        0183 -  8    02 F1 00 28 00 00 00 00 
   613)     12250.788 1  Rx        0183 -  8    00 08 07 50 00 0F 0E 00 
   614)     12270.743 1  Rx        0183 -  8    01 54 00 36 02 00 00 00 
   615)     12290.796 1  Rx        0183 -  8    00 08 07 0E 00 0F 0E 00 
   616)     12310.721 1  Rx        0183 -  8    01 4D 00 3B 02 00 00 00 
   617)     12330.732 1  Rx        0183 -  8    02 F1 00 2A 00 00 00 00 
   618)     12350.827 1  Rx        0183 -  8    00 08 07 39 00 0F 0E 00 
   619)     12370.752 1  Rx        0183 -  8    01 79 00 36 02 00 00 00 
   620)     12390.805 1  Rx        0183 -  8    00 08 07 13 00 0F 0E 00 
   621)     12410.730 1  Rx        0183 -  8    01 47 00 35 02 00 00 00 
   622)     12430.741 1  Rx        0183 -  8    02 F1 00 2C 00 00 00 00 
   623)     12450.837 1  Rx        0183 -  8    00 08 07 16 00 0F 0E 00 
   624)     12470.719 1  Rx        0183 -  8    01 D6 00 40 02 00 00 00 
   625)     12490.815 1  Rx        0183 -  8    00 08 07 07 00 0F 0E 00 
   626)     12510.740 1  Rx        0183 -  8    01 4D 00 40 02 00 00 00 
   627)     12530.750 1  Rx        0183 -  8    02 F1 00 28 00 00 00 00 
   628)     12550.803 1  Rx        0183 -  8    00 08 07 9E 00 0F 0E 00 
   629)     12570.728 1  Rx        0183 -  8    01 F2 00 44 02 00 00 00 
   630)     12590.781 1  Rx        0183 -  8    00 08 07 10 00 0F 0E 00 
   631)     12610.749 1  Rx        0183 -  8    01 E8 00 40 02 00 00 00 
   632)     12630.716 1  Rx        0183 -  8    02 F1 00 2C 00 00 00 00 
   633)     12650.812 1  Rx        0183 -  8    00 08 07 3D 00 0F 0E 00 
   634)     12670.737 1  Rx        0183 -  8    01 DF 00 4B 02 00 00 00 
   635)     12690.790 1  Rx        0183 -  8    00 08 07 65 00 0F 0E 00 
   636)     12710.715 1  Rx        0183 -  8    01 D9 00 4D 02 00 00 00 
   637)     12730.725 1  Rx        0183 -  8    02 F1 00 2A 00 00 00 00 
   638)     12750.821 1  Rx        0183 -  8    00 08 07 17 00 0F 0E 00 
   639)     12770.704 1  Rx        0183 -  8    01 DC 00 4D 02 00 00 00 
   640)     12790.799 1  Rx        0183 -  8    00 08 07 05 00 0F 0E 00 
   641)     12810.724 1  Rx        0183 -  8    01 EC 00 4D 02 00 00 00 
   642)     12830.735 1  Rx        0183 -  8    02 F1 00 2C 00 00 00 00 
   643)     12850.788 1  Rx        0183 -  8    00 08 07 0D 00 0F 0E 00 
   644)     12870.713 1  Rx        0183 -  8    01 41 00 4C 02 00 00 00 
   645)     12890.766 1  Rx        0183 -  8    00 08 07 13 00 0F 0E 00 
   646)     12910.691 1  Rx        0183 -  8    01 F5 00 5D 02 00 00 00 
   647)     12930.701 1  Rx        0183 -  8    02 F1 00 2F 00 00 00 00 
   648)     12950.797 1  Rx        0183 -  8    00 08 07 3F 00 0F 0E 00 
   649)     12970.722 1  Rx        0183 -  8    01 3E 00 5C 02 00 00 00 
   650)     12990.775 1  Rx        0183 -  8    00 08 07 68 00 0F 0E 00 
   651)     13010.700 1  Rx        0183 -  8    01 44 00 5E 02 00 00 00 
   652)     13030.710 1  Rx        0183 -  8    02 F1 00 2A 00 00 00 00 
   653)     13050.806 1  Rx        0183 -  8    00 08 07 17 00 0F 0E 00 
   654)     13070.731 1  Rx        0183 -  8    01 44 00 5D 02 00 00 00 
   655)     13090.784 1  Rx        0183 -  8    00 08 07 7F 00 0F 0E 00 
   656)     13110.709 1  Rx        0183 -  8    01 44 00 5D 02 00 00 00 
   657)     13130.677 1  Rx        0183 -  8    02 F1 00 3A 00 00 00 00 
   658)     13150.772 1  Rx        0183 -  8    00 08 07 0C 00 0F 0E 00 
   659)     13170.697 1  Rx        0183 -  8    01 39 01 68 02 00 00 00 
   660)     13190.750 1  Rx        0183 -  8    00 08 07 10 00 0F 0E 00 
   661)     13210.675 1  Rx        0183 -  8    01 44 00 66 02 00 00 00 
   662)     13230.686 1  Rx        0183 -  8    02 F2 00 3F 00 00 00 00 
   663)     13250.781 1  Rx        0183 -  8    00 08 07 17 00 0F 0E 00 
   664)     13270.701 1  Rx        0183 -  8    01 EF 00 66 02 00 00 00 
   665)     13290.754 1  Rx        0183 -  8    00 08 07 64 00 0F 0E 00 
   666)     13310.679 1  Rx        0183 -  8    01 1A 01 68 02 00 00 00 
   667)     13330.690 1  Rx        0183 -  8    02 F2 00 31 00 00 00 00 
   668)     13350.785 1  Rx        0183 -  8    00 08 07 19 00 0F 0E 00 
   669)     13370.668 1  Rx        0183 -  8    01 20 01 68 02 00 00 00 
   670)     13390.764 1  Rx        0183 -  8    00 08 07 82 00 0F 0E 00 
   671)     13410.689 1  Rx        0183 -  8    01 FB 00 64 02 00 00 00 
   672)     13430.656 1  Rx        0183 -  8    02 F2 00 25 00 00 00 00 
   673)     13450.752 1  Rx        0183 -  8    00 08 07 0F 00 0F 0E 00 
   674)     13470.677 1  Rx        0183 -  8    01 2A 01 67 02 00 00 00 
   675)     13490.730 1  Rx        0183 -  8    00 08 07 1F 00 0F 0E 00 
   676)     13510.698 1  Rx        0183 -  8    01 FE 00 67 02 00 00 00 
   677)     13530.665 1  Rx        0183 -  8    02 F1 00 2A 00 00 00 00 
   678)     13550.761 1  Rx        0183 -  8    00 08 07 12 00 0F 0E 00 
   679)     13570.686 1  Rx        0183 -  8    01 3E 00 67 02 00 00 00 
   680)     13590.739 1  Rx        0183 -  8    00 08 07 5F 00 0F 0E 00 
   681)     13610.664 1  Rx        0183 -  8    01 01 01 67 02 00 00 00 
   682)     13630.674 1  Rx        0183 -  8    02 F1 00 28 00 00 00 00 
   683)     13650.770 1  Rx        0183 -  8    00 08 07 1D 01 0F 0E 00 
   684)     13670.695 1  Rx        0183 -  8    01 3E 00 65 02 00 00 00 
   685)     13690.748 1  Rx        0183 -  8    00 08 07 85 00 0F 0E 00 
   686)     13710.673 1  Rx        0183 -  8    01 44 00 68 02 00 00 00 
   687)     13730.641 1  Rx        0183 -  8    02 F2 00 2A 00 00 00 00 
   688)     13750.737 1  Rx        0183 -  8    00 08 07 0E 00 0F 0E 00 
   689)     13770.662 1  Rx        0183 -  8    01 47 00 68 02 00 00 00 
   690)     13790.715 1  Rx        0183 -  8    00 08 07 1D 00 0F 0E 00 
   691)     13810.640 1  Rx        0183 -  8    01 47 00 66 02 00 00 00 
   692)     13830.650 1  Rx        0183 -  8    02 F2 00 2C 00 00 00 00 
   693)     13850.746 1  Rx        0183 -  8    00 08 07 0F 00 0F 0E 00 
   694)     13870.671 1  Rx        0183 -  8    01 38 00 68 02 00 00 00 
   695)     13890.724 1  Rx        0183 -  8    00 08 07 0A 00 0F 0E 00 
   696)     13910.649 1  Rx        0183 -  8    01 4A 00 67 02 00 00 00 
   697)     13930.659 1  Rx        0183 -  8    02 F2 00 2A 00 00 00 00 
   698)     13950.755 1  Rx        0183 -  8    00 08 07 62 01 0F 0E 00 
   699)     13970.680 1  Rx        0183 -  8    01 F8 00 66 02 00 00 00 
   700)     13990.733 1  Rx        0183 -  8    00 08 07 8A 00 0F 0E 00 
   701)     14010.658 1  Rx        0183 -  8    01 41 00 67 02 00 00 00 
   702)     14030.626 1  Rx        0183 -  8    02 F2 00 2C 00 00 00 00 
   703)     14050.721 1  Rx        0183 -  8    00 08 07 27 00 0F 0E 00 
   704)     14070.646 1  Rx        0183 -  8    01 FB 00 67 02 00 00 00 
   705)     14090.699 1  Rx        0183 -  8    00 08 07 1C 00 0F 0E 00 
   706)     14110.624 1  Rx        0183 -  8    01 07 01 75 02 00 00 00 
   707)     14130.635 1  Rx        0183 -  8    02 F1 00 2C 00 00 00 00 
   708)     14150.688 1  Rx        0183 -  8    00 08 07 11 00 0F 0E 00 
   709)     14170.655 1  Rx        0183 -  8    01 45 01 79 02 00 00 00 
   710)     14190.708 1  Rx        0183 -  8    00 08 07 0D 00 0F 0E 00 
   711)     14210.633 1  Rx        0183 -  8    01 23 01 7A 02 00 00 00 
   712)     14230.644 1  Rx        0183 -  8    02 F2 00 2A 00 00 00 00 
   713)     14250.739 1  Rx        0183 -  8    00 08 07 8A 01 0F 0E 00 
   714)     14270.652 1  Rx        0183 -  8    01 38 00 79 02 00 00 00 
   715)     14290.747 1  Rx        0183 -  8    00 08 07 11 00 0F 0E 00 
   716)     14310.672 1  Rx        0183 -  8    01 07 01 7A 02 00 00 00 
   717)     14330.683 1  Rx        0183 -  8    02 F2 00 28 00 00 00 00 
   718)     14350.736 1  Rx        0183 -  8    00 08 07 27 00 0F 0E 00 
   719)     14370.661 1  Rx        0183 -  8    01 41 00 7B 02 00 00 00 
   720)     14390.714 1  Rx        0183 -  8    00 08 07 1E 00 0F 0E 00 
   721)     14410.682 1  Rx        0183 -  8    01 3E 00 79 02 00 00 00 
   722)     14430.649 1  Rx        0183 -  8    02 F2 00 2A 00 00 00 00 
   723)     14450.745 1  Rx        0183 -  8    00 08 07 18 00 0F 0E 00 
   724)     14470.670 1  Rx        0183 -  8    01 3B 00 7C 02 00 00 00 
   725)     14490.723 1  Rx        0183 -  8    00 08 07 0A 00 0F 0E 00 
   726)     14510.648 1  Rx        0183 -  8    01 41 00 7B 02 00 00 00 
   727)     14530.658 1  Rx        0183 -  8    02 F2 00 2C 00 00 00 00 
   728)     14550.754 1  Rx        0183 -  8    00 08 07 CB 00 0F 0E 00 
   729)     14570.636 1  Rx        0183 -  8    01 44 00 79 02 00 00 00 
   730)     14590.732 1  Rx        0183 -  8    00 08 07 11 00 0F 0E 00 
   731)     14610.657 1  Rx        0183 -  8    01 41 00 83 02 00 00 00 
   732)     14630.625 1  Rx        0183 -  8    02 F1 00 25 00 00 00 00 
   733)     14650.720 1  Rx        0183 -  8    00 08 07 2C 00 0F 0E 00 
   734)     14670.646 1  Rx        0183 -  8    01 45 01 84 02 00 00 00 
   735)     14690.699 1  Rx        0183 -  8    00 08 07 92 00 0F 0E 00 
   736)     14710.624 1  Rx        0183 -  8    01 3B 00 85 02 00 00 00 
   737)     14730.634 1  Rx        0183 -  8    02 F1 00 2C 00 00 00 00 
   738)     14750.730 1  Rx        0183 -  8    00 08 07 1E 00 0F 0E 00 
   739)     14770.655 1  Rx        0183 -  8    01 4F 01 83 02 00 00 00 
   740)     14790.708 1  Rx        0183 -  8    00 08 07 0A 00 0F 0E 00 
   741)     14810.633 1  Rx        0183 -  8    01 39 01 84 02 00 00 00 
   742)     14830.643 1  Rx        0183 -  8    02 F1 00 2A 00 00 00 00 
   743)     14850.739 1  Rx        0183 -  8    00 08 07 13 00 0F 0E 00 
   744)     14870.664 1  Rx        0183 -  8    01 3F 01 8C 02 00 00 00 
   745)     14890.717 1  Rx        0183 -  8    00 08 07 11 00 0F 0E 00 
   746)     14910.642 1  Rx        0183 -  8    01 2D 01 8C 02 00 00 00 
   747)     14930.609 1  Rx        0183 -  8    02 F2 00 2A 00 00 00 00 
   748)     14950.705 1  Rx        0183 -  8    00 08 07 2D 00 0F 0E 00 
   749)     14970.630 1  Rx        0183 -  8    01 45 01 8D 02 00 00 00 
   750)     14990.683 1  Rx        0183 -  8    00 08 07 95 00 0F 0E 00 
   751)     15010.608 1  Rx        0183 -  8    01 26 01 8C 02 00 00 00 
   752)     15030.619 1  Rx        0183 -  8    02 F2 00 2C 00 00 00 00 
   753)     15050.672 1  Rx        0183 -  8    00 08 07 1B 00 0F 0E 00 
   754)     15070.639 1  Rx        0183 -  8    01 41 00 93 02 00 00 00 
   755)     15090.692 1  Rx        0183 -  8    00 08 07 64 00 0F 0E 00 
   756)     15110.617 1  Rx        0183 -  8    01 49 01 95 02 00 00 00 
   757)     15130.628 1  Rx        0183 -  8    02 F1 00 31 00 00 00 00 
   758)     15150.723 1  Rx        0183 -  8    00 08 07 17 00 0F 0E 00 
   759)     15170.606 1  Rx        0183 -  8    01 32 00 97 02 00 00 00 
   760)     15190.701 1  Rx        0183 -  8    00 08 07 12 00 0F 0E 00 
   761)     15210.626 1  Rx        0183 -  8    01 38 00 96 02 00 00 00 
   762)     15230.594 1  Rx        0183 -  8    02 F1 00 36 00 00 00 00 
   763)     15250.690 1  Rx        0183 -  8    00 08 07 2B 00 0F 0E 00 
   764)     15270.521 1  Rx        0183 -  8    01 32 00 97 02 00 00 00 
   765)     15290.574 1  Rx        0183 -  8    00 08 07 8F 00 0F 0E 00 
   766)     15310.542 1  Rx        0183 -  8    01 32 00 9E 02 00 00 00 
   767)     15330.509 1  Rx        0183 -  8    02 F1 00 2F 00 00 00 00 
   768)     15350.605 1  Rx        0183 -  8    00 08 07 1A 00 0F 0E 00 
   769)     15370.530 1  Rx        0183 -  8    01 49 01 A0 02 00 00 00 
   770)     15390.583 1  Rx        0183 -  8    00 08 07 6C 00 0F 0E 00 
   771)     15410.508 1  Rx        0183 -  8    01 35 00 A0 02 00 00 00 
   772)     15430.518 1  Rx        0183 -  8    02 F1 00 2A 00 00 00 00 
   773)     15450.614 1  Rx        0183 -  8    00 08 07 15 00 0F 0E 00 
   774)     15470.496 1  Rx        0183 -  8    01 5B 01 9F 02 00 00 00 
   775)     15490.592 1  Rx        0183 -  8    00 08 07 1B 00 0F 0E 00 
   776)     15510.517 1  Rx        0183 -  8    01 5E 01 A0 02 00 00 00 
   777)     15530.485 1  Rx        0183 -  8    02 F1 00 2C 00 00 00 00 
   778)     15550.580 1  Rx        0183 -  8    00 08 07 25 00 0F 0E 00 
   779)     15570.505 1  Rx        0183 -  8    01 52 01 9F 02 00 00 00 
   780)     15590.558 1  Rx        0183 -  8    00 08 07 8F 00 0F 0E 00 
   781)     15610.526 1  Rx        0183 -  8    01 52 01 A0 02 00 00 00 
   782)     15630.494 1  Rx        0183 -  8    02 F1 00 28 00 00 00 00 
   783)     15650.590 1  Rx        0183 -  8    00 08 07 D4 00 0F 0E 00 
   784)     15670.515 1  Rx        0183 -  8    01 5E 01 A0 02 00 00 00 
   785)     15690.568 1  Rx        0183 -  8    00 08 07 6D 00 0F 0E 00 
   786)     15710.493 1  Rx        0183 -  8    01 58 01 9E 02 00 00 00 
   787)     15730.503 1  Rx        0183 -  8    02 F1 00 2A 00 00 00 00 
   788)     15750.599 1  Rx        0183 -  8    00 08 07 15 00 0F 0E 00 
   789)     15770.481 1  Rx        0183 -  8    01 32 00 9F 02 00 00 00 
   790)     15790.577 1  Rx        0183 -  8    00 08 07 1A 00 0F 0E 00 
   791)     15810.502 1  Rx        0183 -  8    01 61 01 9F 02 00 00 00 
   792)     15830.469 1  Rx        0183 -  8    02 F1 00 2A 00 00 00 00 
   793)     15850.565 1  Rx        0183 -  8    00 08 07 24 00 0F 0E 00 
   794)     15870.490 1  Rx        0183 -  8    01 2E 00 A0 02 00 00 00 
   795)     15890.543 1  Rx        0183 -  8    00 08 07 09 00 0F 0E 00 
   796)     15910.468 1  Rx        0183 -  8    01 35 00 9E 02 00 00 00 
   797)     15930.478 1  Rx        0183 -  8    02 F1 00 2C 00 00 00 00 
   798)     15950.574 1  Rx        0183 -  8    00 08 07 0E 01 0F 0E 00 
   799)     15970.499 1  Rx        0183 -  8    01 3E 00 A0 02 00 00 00 
   800)     15990.552 1  Rx        0183 -  8    00 08 07 75 00 0F 0E 00 
   801)     16010.477 1  Rx        0183 -  8    01 38 00 A1 02 00 00 00 
   802)     16030.488 1  Rx        0183 -  8    02 F1 00 2A 00 00 00 00 
   803)     16050.583 1  Rx        0183 -  8    00 08 07 1E 00 0F 0E 00 
   804)     16070.466 1  Rx        0183 -  8    01 55 01 A1 02 00 00 00 
   805)     16090.561 1  Rx        0183 -  8    00 08 07 19 00 0F 0E 00 
   806)     16110.486 1  Rx        0183 -  8    01 38 00 A1 02 00 00 00 
   807)     16130.497 1  Rx        0183 -  8    02 F1 00 28 00 00 00 00 
   808)     16150.550 1  Rx        0183 -  8    00 08 07 22 00 0F 0E 00 
   809)     16170.475 1  Rx        0183 -  8    01 49 01 9F 02 00 00 00 
   810)     16190.528 1  Rx        0183 -  8    00 08 07 07 00 0F 0E 00 
   811)     16210.453 1  Rx        0183 -  8    01 45 01 A1 02 00 00 00 
   812)     16230.463 1  Rx        0183 -  8    02 F1 00 2C 00 00 00 00 
   813)     16250.516 1  Rx        0183 -  8    00 08 07 11 01 0F 0E 00 
   814)     16270.514 1  Rx        0183 -  8    01 42 01 A7 02 00 00 00 
   815)     16290.567 1  Rx        0183 -  8    00 08 07 0C 00 0F 0E 00 
   816)     16310.492 1  Rx        0183 -  8    01 61 01 AA 02 00 00 00 
   817)     16330.502 1  Rx        0183 -  8    02 F1 00 2A 00 00 00 00 
   818)     16350.598 1  Rx        0183 -  8    00 08 07 1F 00 0F 0E 00 
   819)     16370.480 1  Rx        0183 -  8    01 4F 01 A8 02 00 00 00 
   820)     16390.576 1  Rx        0183 -  8    00 08 07 1B 00 0F 0E 00 
   821)     16410.501 1  Rx        0183 -  8    01 49 01 A9 02 00 00 00 
   822)     16430.469 1  Rx        0183 -  8    02 F1 00 2A 00 00 00 00 
   823)     16450.564 1  Rx        0183 -  8    00 08 07 16 00 0F 0E 00 
   824)     16470.489 1  Rx        0183 -  8    01 32 00 A9 02 00 00 00 
   825)     16490.542 1  Rx        0183 -  8    00 08 07 0B 00 0F 0E 00 
   826)     16510.467 1  Rx        0183 -  8    01 58 01 AF 02 00 00 00 
   827)     16530.478 1  Rx        0183 -  8    02 F1 00 2A 00 00 00 00 
   828)     16550.573 1  Rx        0183 -  8    00 08 07 E0 00 0F 0E 00 
   829)     16570.498 1  Rx        0183 -  8    01 3E 00 B3 02 00 00 00 
   830)     16590.552 1  Rx        0183 -  8    00 08 07 0C 00 0F 0E 00 
   831)     16610.477 1  Rx        0183 -  8    01 3E 00 B3 02 00 00 00 
   832)     16630.487 1  Rx        0183 -  8    02 F1 00 28 00 00 00 00 
   833)     16650.583 1  Rx        0183 -  8    00 08 07 22 00 0F 0E 00 
   834)     16670.465 1  Rx        0183 -  8    01 41 00 B1 02 00 00 00 
   835)     16690.561 1  Rx        0183 -  8    00 08 07 FE 01 0F 0E 00 
   836)     16710.486 1  Rx        0183 -  8    01 3B 00 B2 02 00 00 00 
   837)     16730.453 1  Rx        0183 -  8    02 F2 00 2A 00 00 00 00 
   838)     16750.549 1  Rx        0183 -  8    00 08 07 14 00 0F 0E 00 
   839)     16770.474 1  Rx        0183 -  8    01 38 00 B9 02 00 00 00 
   840)     16790.527 1  Rx        0183 -  8    00 07 07 09 00 0F 0E 00 
   841)     16810.452 1  Rx        0183 -  8    01 44 00 BC 02 00 00 00 
   842)     16830.462 1  Rx        0183 -  8    02 F2 00 2A 00 00 00 00 
   843)     16850.558 1  Rx        0183 -  8    00 06 07 16 00 0F 0E 00 
   844)     16870.483 1  Rx        0183 -  8    01 52 01 BA 02 00 00 00 
   845)     16890.536 1  Rx        0183 -  8    00 06 07 0D 00 0F 0E 00 
   846)     16910.461 1  Rx        0183 -  8    01 3E 00 BC 02 00 00 00 
   847)     16930.472 1  Rx        0183 -  8    02 F2 00 2F 00 00 00 00 
   848)     16950.567 1  Rx        0183 -  8    00 05 07 22 00 0F 0E 00 
   849)     16970.492 1  Rx        0183 -  8    01 C0 00 BE 02 00 00 00 
   850)     16990.545 1  Rx        0183 -  8    00 04 07 7A 01 0F 0E 00 
   851)     17010.470 1  Rx        0183 -  8    01 C3 00 BC 02 00 00 00 
   852)     17030.438 1  Rx        0183 -  8    02 F1 00 33 00 00 00 00 
   853)     17050.534 1  Rx        0183 -  8    00 02 07 14 00 0F 0E 00 
   854)     17070.459 1  Rx        0183 -  8    01 D7 01 BF 02 00 00 00 
   855)     17090.512 1  Rx        0183 -  8    00 01 07 45 00 0F 0E 00 
   856)     17110.479 1  Rx        0183 -  8    01 BE 01 BE 02 00 00 00 
   857)     17130.447 1  Rx        0183 -  8    02 F1 00 31 00 00 00 00 
   858)     17150.543 1  Rx        0183 -  8    00 00 07 16 00 0F 0E 00 
   859)     17170.468 1  Rx        0183 -  8    01 7C 00 BF 02 00 00 00 
   860)     17190.521 1  Rx        0183 -  8    00 FF 06 0A 00 0F 0E 00 
   861)     17210.446 1  Rx        0183 -  8    01 ED 01 BF 02 00 00 00 
   862)     17230.456 1  Rx        0183 -  8    02 F1 00 2A 00 00 00 00 
   863)     17250.552 1  Rx        0183 -  8    00 FF 06 45 00 0F 0E 00 
   864)     17270.464 1  Rx        0183 -  8    01 4D 00 BD 02 00 00 00 
   865)     17290.517 1  Rx        0183 -  8    00 FF 06 5B 01 0F 0E 00 
   866)     17310.485 1  Rx        0183 -  8    01 57 00 BC 02 00 00 00 
   867)     17330.453 1  Rx        0183 -  8    02 F2 00 2A 00 00 00 00 
   868)     17350.548 1  Rx        0183 -  8    00 FE 06 14 00 0F 0E 00 
   869)     17370.473 1  Rx        0183 -  8    01 4D 00 B7 02 00 00 00 
   870)     17390.526 1  Rx        0183 -  8    00 FE 06 47 00 0F 0E 00 
   871)     17410.451 1  Rx        0183 -  8    01 4A 00 BD 02 00 00 00 
   872)     17430.462 1  Rx        0183 -  8    02 F2 00 2F 00 00 00 00 
   873)     17450.557 1  Rx        0183 -  8    00 FE 06 18 00 0F 0E 00 
   874)     17470.482 1  Rx        0183 -  8    01 47 00 B7 02 00 00 00 
   875)     17490.535 1  Rx        0183 -  8    00 FE 06 20 00 0F 0E 00 
   876)     17510.460 1  Rx        0183 -  8    01 47 00 B6 02 00 00 00 
   877)     17530.471 1  Rx        0183 -  8    02 F2 00 2A 00 00 00 00 
   878)     17550.567 1  Rx        0183 -  8    00 FE 06 46 00 0F 0E 00 
   879)     17570.492 1  Rx        0183 -  8    01 60 00 B7 02 00 00 00 
   880)     17590.545 1  Rx        0183 -  8    00 FE 06 C8 00 0F 0E 00 
   881)     17610.470 1  Rx        0183 -  8    01 76 00 B7 02 00 00 00 
   882)     17630.437 1  Rx        0183 -  8    02 F2 00 2C 00 00 00 00 
   883)     17650.533 1  Rx        0183 -  8    00 FE 06 D6 00 0F 0E 00 
   884)     17670.458 1  Rx        0183 -  8    01 54 00 BD 02 00 00 00 
   885)     17690.554 1  Rx        0183 -  8    00 FE 06 48 00 0F 0E 00 
   886)     17710.436 1  Rx        0183 -  8    01 51 00 B6 02 00 00 00 
   887)     17730.446 1  Rx        0183 -  8    02 F2 00 28 00 00 00 00 
   888)     17750.499 1  Rx        0183 -  8    00 FE 06 14 00 0F 0E 00 
   889)     17770.467 1  Rx        0183 -  8    01 60 00 BC 02 00 00 00 
   890)     17790.520 1  Rx        0183 -  8    00 FE 06 21 00 0F 0E 00 
   891)     17810.445 1  Rx        0183 -  8    01 54 00 BD 02 00 00 00 
   892)     17830.455 1  Rx        0183 -  8    02 F2 00 2C 00 00 00 00 
   893)     17850.551 1  Rx        0183 -  8    00 FE 06 3E 00 0F 0E 00 
   894)     17870.434 1  Rx        0183 -  8    01 5D 00 BB 02 00 00 00 
   895)     17890.529 1  Rx        0183 -  8    00 FE 06 12 00 0F 0E 00 
   896)     17910.454 1  Rx        0183 -  8    01 57 00 BD 02 00 00 00 
   897)     17930.422 1  Rx        0183 -  8    02 F2 00 2A 00 00 00 00 
   898)     17950.518 1  Rx        0183 -  8    00 FD 06 FB 00 0F 0E 00 
   899)     17970.443 1  Rx        0183 -  8    01 51 00 C5 02 00 00 00 
   900)     17990.496 1  Rx        0183 -  8    00 FB 06 4E 00 0F 0E 00 
   901)     18010.421 1  Rx        0183 -  8    01 9E 00 C1 02 00 00 00 
   902)     18030.431 1  Rx        0183 -  8    02 F2 00 2A 00 00 00 00 
   903)     18050.527 1  Rx        0183 -  8    00 F8 06 1B 00 0F 0E 00 
   904)     18070.452 1  Rx        0183 -  8    01 AA 00 BF 02 00 00 00 
   905)     18090.505 1  Rx        0183 -  8    00 F7 06 20 00 0F 0E 00 
   906)     18110.430 1  Rx        0183 -  8    01 B1 00 BB 02 00 00 00 
   907)     18130.440 1  Rx        0183 -  8    02 F1 00 2A 00 00 00 00 
   908)     18150.536 1  Rx        0183 -  8    00 F4 06 3F 00 0F 0E 00 
   909)     18170.418 1  Rx        0183 -  8    01 79 00 C3 02 00 00 00 
   910)     18190.471 1  Rx        0183 -  8    00 F1 06 17 00 0F 0E 00 
   911)     18210.439 1  Rx        0183 -  8    01 79 00 CD 02 00 00 00 
   912)     18230.449 1  Rx        0183 -  8    02 F1 00 2C 00 00 00 00 
   913)     18250.502 1  Rx        0183 -  8    00 E7 06 E2 00 0F 0E 00 
   914)     18270.434 1  Rx        0183 -  8    01 C9 00 C7 02 00 00 00 
   915)     18290.487 1  Rx        0183 -  8    00 E2 06 1C 00 0F 0E 00 
   916)     18310.412 1  Rx        0183 -  8    01 4A 00 C4 02 00 00 00 
   917)     18330.423 1  Rx        0183 -  8    02 F2 00 28 00 00 00 00 
   918)     18350.518 1  Rx        0183 -  8    00 DA 06 1A 00 0F 0E 00 
   919)     18370.443 1  Rx        0183 -  8    01 B1 00 CC 02 00 00 00 
   920)     18390.496 1  Rx        0183 -  8    00 D6 06 1D 00 0F 0E 00 
   921)     18410.421 1  Rx        0183 -  8    01 9E 00 D0 02 00 00 00 
   922)     18430.432 1  Rx        0183 -  8    02 F2 00 2C 00 00 00 00 
   923)     18450.527 1  Rx        0183 -  8    00 CC 06 0E 00 0F 0E 00 
   924)     18470.452 1  Rx        0183 -  8    01 7C 00 C9 02 00 00 00 
   925)     18490.463 1  Rx        0183 -  8    00 C7 06 14 00 0F 0E 00 
   926)     18510.431 1  Rx        0183 -  8    01 5A 00 C7 02 00 00 00 
   927)     18530.441 1  Rx        0183 -  8    02 F2 00 28 00 00 00 00 
   928)     18550.494 1  Rx        0183 -  8    00 C1 06 DC 00 0F 0E 00 
   929)     18570.419 1  Rx        0183 -  8    01 92 00 C2 02 00 00 00 
   930)     18590.472 1  Rx        0183 -  8    00 BC 06 24 00 0F 0E 00 
   931)     18610.397 1  Rx        0183 -  8    01 85 00 C4 02 00 00 00 
   932)     18630.407 1  Rx        0183 -  8    02 F2 00 2A 00 00 00 00 
   933)     18650.503 1  Rx        0183 -  8    00 B4 06 1A 00 0F 0E 00 
   934)     18670.428 1  Rx        0183 -  8    01 4A 00 C8 02 00 00 00 
   935)     18690.481 1  Rx        0183 -  8    00 B0 06 3D 01 0F 0E 00 
   936)     18710.406 1  Rx        0183 -  8    01 92 00 C5 02 00 00 00 
   937)     18730.416 1  Rx        0183 -  8    02 F2 00 25 00 00 00 00 
   938)     18750.512 1  Rx        0183 -  8    00 AA 06 11 00 0F 0E 00 
   939)     18770.394 1  Rx        0183 -  8    01 41 00 C5 02 00 00 00 
   940)     18790.490 1  Rx        0183 -  8    00 A7 06 13 00 0F 0E 00 
   941)     18810.415 1  Rx        0183 -  8    01 5A 00 BF 02 00 00 00 
   942)     18830.383 1  Rx        0183 -  8    02 F1 00 23 00 00 00 00 
   943)     18850.479 1  Rx        0183 -  8    00 A2 06 12 00 0F 0E 00 
   944)     18870.404 1  Rx        0183 -  8    01 5D 00 C6 02 00 00 00 
   945)     18890.457 1  Rx        0183 -  8    00 9E 06 27 00 0F 0E 00 
   946)     18910.382 1  Rx        0183 -  8    01 32 00 C4 02 00 00 00 
   947)     18930.392 1  Rx        0183 -  8    02 F1 00 4B 00 00 00 00 
   948)     18950.488 1  Rx        0183 -  8    00 99 06 1D 00 0F 0E 00 
   949)     18970.413 1  Rx        0183 -  8    01 8F 00 C3 02 00 00 00 
   950)     18990.466 1  Rx        0183 -  8    00 95 06 A0 00 0F 0E 00 
   951)     19010.391 1  Rx        0183 -  8    01 28 00 C2 02 00 00 00 
   952)     19030.401 1  Rx        0183 -  8    02 F1 00 4B 00 00 00 00 
   953)     19050.497 1  Rx        0183 -  8    00 91 06 10 00 0F 0E 00 
   954)     19070.379 1  Rx        0183 -  8    01 92 00 C3 02 00 00 00 
   955)     19090.475 1  Rx        0183 -  8    00 8F 06 24 00 0F 0E 00 
   956)     19110.400 1  Rx        0183 -  8    01 3B 00 C4 02 00 00 00 
   957)     19130.410 1  Rx        0183 -  8    02 F2 00 4F 00 00 00 00 
   958)     19150.463 1  Rx        0183 -  8    00 8C 06 15 00 0F 0E 00 
   959)     19170.388 1  Rx        0183 -  8    01 A1 00 BF 02 00 00 00 
   960)     19190.441 1  Rx        0183 -  8    00 89 06 29 00 0F 0E 00 
   961)     19210.366 1  Rx        0183 -  8    01 BA 00 C1 02 00 00 00 
   962)     19230.377 1  Rx        0183 -  8    02 F1 00 2F 00 00 00 00 
   963)     19250.430 1  Rx        0183 -  8    00 84 06 93 00 0F 0E 00 
   964)     19270.395 1  Rx        0183 -  8    01 B1 00 C3 02 00 00 00 
   965)     19290.448 1  Rx        0183 -  8    00 81 06 1C 01 0F 0E 00 
   966)     19310.373 1  Rx        0183 -  8    01 98 00 C3 02 00 00 00 
   967)     19330.384 1  Rx        0183 -  8    02 F1 00 2C 00 00 00 00 
   968)     19350.479 1  Rx        0183 -  8    00 7C 06 0E 00 0F 0E 00 
   969)     19370.362 1  Rx        0183 -  8    01 63 00 C2 02 00 00 00 
   970)     19390.457 1  Rx        0183 -  8    00 79 06 20 00 0F 0E 00 
   971)     19410.382 1  Rx        0183 -  8    01 88 00 C9 02 00 00 00 
   972)     19430.350 1  Rx        0183 -  8    02 F1 00 5D 00 00 00 00 
   973)     19450.446 1  Rx        0183 -  8    00 71 06 11 00 0F 0E 00 
   974)     19470.371 1  Rx        0183 -  8    01 57 00 CA 02 00 00 00 
   975)     19490.424 1  Rx        0183 -  8    00 6B 06 0F 00 0F 0E 00 
   976)     19510.349 1  Rx        0183 -  8    01 3B 00 CA 02 00 00 00 
   977)     19530.359 1  Rx        0183 -  8    02 F1 00 31 00 00 00 00 
   978)     19550.455 1  Rx        0183 -  8    00 62 06 30 00 0F 0E 00 
   979)     19570.380 1  Rx        0183 -  8    01 3B 00 CA 02 00 00 00 
   980)     19590.433 1  Rx        0183 -  8    00 5D 06 77 00 0F 0E 00 
   981)     19610.358 1  Rx        0183 -  8    01 3E 00 CA 02 00 00 00 
   982)     19630.368 1  Rx        0183 -  8    02 F1 00 2A 00 00 00 00 
   983)     19650.464 1  Rx        0183 -  8    00 54 06 70 00 0F 0E 00 
   984)     19670.389 1  Rx        0183 -  8    01 38 00 CA 02 00 00 00 
   985)     19690.399 1  Rx        0183 -  8    00 4E 06 1E 00 0F 0E 00 
   986)     19710.367 1  Rx        0183 -  8    01 3E 00 C8 02 00 00 00 
   987)     19730.335 1  Rx        0183 -  8    02 F1 00 4B 00 00 00 00 
   988)     19750.430 1  Rx        0183 -  8    00 46 06 0A 00 0F 0E 00 
   989)     19770.355 1  Rx        0183 -  8    01 79 00 C8 02 00 00 00 
   990)     19790.409 1  Rx        0183 -  8    00 41 06 0A 00 0F 0E 00 
   991)     19810.334 1  Rx        0183 -  8    01 3B 00 C9 02 00 00 00 
   992)     19830.344 1  Rx        0183 -  8    02 F1 00 2F 00 00 00 00 
   993)     19850.440 1  Rx        0183 -  8    00 39 06 86 00 0F 0E 00 
   994)     19870.365 1  Rx        0183 -  8    01 70 00 D0 02 00 00 00 
   995)     19890.418 1  Rx        0183 -  8    00 31 06 0F 00 0F 0E 00 
   996)     19910.343 1  Rx        0183 -  8    01 6C 00 D0 02 00 00 00 
   997)     19930.353 1  Rx        0183 -  8    02 F1 00 28 00 00 00 00 
   998)     19950.449 1  Rx        0183 -  8    00 25 06 69 00 0F 0E 00 
   999)     19970.331 1  Rx        0183 -  8    01 73 00 CF 02 00 00 00 
  1000)     19990.427 1  Rx        0183 -  8    00 1E 06 1B 00 0F 0E 00 
  1001)     20010.352 1  Rx        0183 -  8    01 70 00 CE 02 00 00 00 
  1002)     20030.319 1  Rx        0183 -  8    02 F1 00 21 00 00 00 00 
  1003)     20050.415 1  Rx        0183 -  8    00 12 06 1A 00 0F 0E 00 
  1004)     20070.340 1  Rx        0183 -  8    01 6C 00 CC 02 00 00 00 
  1005)     20090.393 1  Rx        0183 -  8    00 0B 06 09 00 0F 0E 00 
  1006)     20110.318 1  Rx        0183 -  8    01 63 00 CB 02 00 00 00 
  1007)     20130.329 1  Rx        0183 -  8    02 F1 00 2F 00 00 00 00 
  1008)     20150.424 1  Rx        0183 -  8    00 01 06 B9 00 0F 0E 00 
  1009)     20170.349 1  Rx        0183 -  8    01 38 00 CA 02 00 00 00 
  1010)     20190.402 1  Rx        0183 -  8    00 FB 05 0C 00 0F 0E 00 
  1011)     20210.327 1  Rx        0183 -  8    01 63 00 CB 02 00 00 00 
  1012)     20230.338 1  Rx        0183 -  8    02 F1 00 2C 00 00 00 00 
  1013)     20250.433 1  Rx        0183 -  8    00 F1 05 63 00 0F 0E 00 
  1014)     20270.317 1  Rx        0183 -  8    01 79 00 CC 02 00 00 00 
  1015)     20290.370 1  Rx        0183 -  8    00 EB 05 37 00 0F 0E 00 
  1016)     20310.337 1  Rx        0183 -  8    01 57 00 CA 02 00 00 00 
  1017)     20330.348 1  Rx        0183 -  8    02 F1 00 2C 00 00 00 00 
  1018)     20350.401 1  Rx        0183 -  8    00 E2 05 14 00 0F 0E 00 
  1019)     20370.326 1  Rx        0183 -  8    01 51 00 CA 02 00 00 00 
  1020)     20390.379 1  Rx        0183 -  8    00 DC 05 05 00 0F 0E 00 
  1021)     20410.304 1  Rx        0183 -  8    01 47 00 CB 02 00 00 00 
  1022)     20430.314 1  Rx        0183 -  8    02 F1 00 2F 00 00 00 00 
  1023)     20450.410 1  Rx        0183 -  8    00 D4 05 08 00 0F 0E 00 
  1024)     20470.335 1  Rx        0183 -  8    01 5A 00 C9 02 00 00 00 
  1025)     20490.388 1  Rx        0183 -  8    00 CF 05 06 00 0F 0E 00 
  1026)     20510.313 1  Rx        0183 -  8    01 57 00 C9 02 00 00 00 
  1027)     20530.323 1  Rx        0183 -  8    02 F1 00 2C 00 00 00 00 
  1028)     20550.419 1  Rx        0183 -  8    00 C7 05 60 00 0F 0E 00 
  1029)     20570.301 1  Rx        0183 -  8    01 51 00 C7 02 00 00 00 
  1030)     20590.397 1  Rx        0183 -  8    00 C2 05 02 01 0F 0E 00 
  1031)     20610.322 1  Rx        0183 -  8    01 54 00 C7 02 00 00 00 
  1032)     20630.290 1  Rx        0183 -  8    02 F1 00 21 00 00 00 00 
  1033)     20650.385 1  Rx        0183 -  8    00 BC 05 0F 00 0F 0E 00 
  1034)     20670.310 1  Rx        0183 -  8    01 54 00 C5 02 00 00 00 
  1035)     20690.363 1  Rx        0183 -  8    00 B7 05 74 00 0F 0E 00 
  1036)     20710.288 1  Rx        0183 -  8    01 57 00 C5 02 00 00 00 
  1037)     20730.299 1  Rx        0183 -  8    02 F1 00 33 00 00 00 00 
  1038)     20750.395 1  Rx        0183 -  8    00 B1 05 09 00 0F 0E 00 
  1039)     20770.320 1  Rx        0183 -  8    01 51 00 C2 02 00 00 00 
  1040)     20790.373 1  Rx        0183 -  8    00 AD 05 07 00 0F 0E 00 
  1041)     20810.298 1  Rx        0183 -  8    01 57 00 C2 02 00 00 00 
  1042)     20830.308 1  Rx        0183 -  8    02 F2 00 2A 00 00 00 00 
  1043)     20850.404 1  Rx        0183 -  8    00 A7 05 37 00 0F 0E 00 
  1044)     20870.286 1  Rx        0183 -  8    01 51 00 C3 02 00 00 00 
  1045)     20890.382 1  Rx        0183 -  8    00 A4 05 C5 00 0F 0E 00 
  1046)     20910.307 1  Rx        0183 -  8    01 51 00 C3 02 00 00 00 
  1047)     20930.274 1  Rx        0183 -  8    02 F2 00 2C 00 00 00 00 
  1048)     20950.370 1  Rx        0183 -  8    00 9E 05 0F 00 0F 0E 00 
  1049)     20970.295 1  Rx        0183 -  8    01 2E 00 C5 02 00 00 00 
  1050)     20990.348 1  Rx        0183 -  8    00 9B 05 87 00 0F 0E 00 
  1051)     21010.316 1  Rx        0183 -  8    01 54 00 C1 02 00 00 00 
  1052)     21030.283 1  Rx        0183 -  8    02 F2 00 2C 00 00 00 00 
  1053)     21050.379 1  Rx        0183 -  8    00 96 05 03 00 0F 0E 00 
  1054)     21070.304 1  Rx        0183 -  8    01 47 00 C4 02 00 00 00 
  1055)     21090.357 1  Rx        0183 -  8    00 93 05 12 00 0F 0E 00 
  1056)     21110.282 1  Rx        0183 -  8    01 47 00 C4 02 00 00 00 
  1057)     21130.293 1  Rx        0183 -  8    02 F2 00 2F 00 00 00 00 
  1058)     21150.388 1  Rx        0183 -  8    00 8F 05 39 00 0F 0E 00 
  1059)     21170.271 1  Rx        0183 -  8    01 4A 00 C2 02 00 00 00 
  1060)     21190.324 1  Rx        0183 -  8    00 8D 05 AF 00 0F 0E 00 
  1061)     21210.291 1  Rx        0183 -  8    01 AE 00 C3 02 00 00 00 
  1062)     21230.259 1  Rx        0183 -  8    02 F1 00 52 00 00 00 00 
  1063)     21250.355 1  Rx        0183 -  8    00 89 05 88 00 0F 0E 00 
  1064)     21270.271 1  Rx        0183 -  8    01 51 00 BF 02 00 00 00 
  1065)     21290.324 1  Rx        0183 -  8    00 86 05 86 00 0F 0E 00 
  1066)     21310.249 1  Rx        0183 -  8    01 4D 00 C2 02 00 00 00 
  1067)     21330.259 1  Rx        0183 -  8    02 F2 00 2F 00 00 00 00 
  1068)     21350.355 1  Rx        0183 -  8    00 83 05 02 00 0F 0E 00 
  1069)     21370.280 1  Rx        0183 -  8    01 54 00 BE 02 00 00 00 
  1070)     21390.333 1  Rx        0183 -  8    00 81 05 0F 00 0F 0E 00 
  1071)     21410.258 1  Rx        0183 -  8    01 4D 00 C2 02 00 00 00 
  1072)     21430.268 1  Rx        0183 -  8    02 F1 00 2A 00 00 00 00 
  1073)     21450.364 1  Rx        0183 -  8    00 7E 05 3E 00 0F 0E 00 
  1074)     21470.246 1  Rx        0183 -  8    01 38 00 BD 02 00 00 00 
  1075)     21490.342 1  Rx        0183 -  8    00 7C 05 07 00 0F 0E 00 
  1076)     21510.267 1  Rx        0183 -  8    01 57 00 BD 02 00 00 00 
  1077)     21530.235 1  Rx        0183 -  8    02 F2 00 33 00 00 00 00 
  1078)     21550.330 1  Rx        0183 -  8    00 7A 05 81 00 0F 0E 00 
  1079)     21570.255 1  Rx        0183 -  8    01 A1 00 C1 02 00 00 00 
  1080)     21590.308 1  Rx        0183 -  8    00 78 05 6F 00 0F 0E 00 
  1081)     21610.233 1  Rx        0183 -  8    01 47 00 BC 02 00 00 00 
  1082)     21630.244 1  Rx        0183 -  8    02 F2 00 2F 00 00 00 00 
  1083)     21650.339 1  Rx        0183 -  8    00 76 05 39 00 0F 0E 00 
  1084)     21670.264 1  Rx        0183 -  8    01 5A 00 C0 02 00 00 00 
  1085)     21690.317 1  Rx        0183 -  8    00 74 05 0F 00 0F 0E 00 
  1086)     21710.243 1  Rx        0183 -  8    01 32 00 BC 02 00 00 00 
  1087)     21730.253 1  Rx        0183 -  8    02 F2 00 2A 00 00 00 00 
  1088)     21750.349 1  Rx        0183 -  8    00 72 05 41 00 0F 0E 00 
  1089)     21770.231 1  Rx        0183 -  8    01 35 00 BF 02 00 00 00 
  1090)     21790.327 1  Rx        0183 -  8    00 71 05 08 00 0F 0E 00 
  1091)     21810.252 1  Rx        0183 -  8    01 44 00 C1 02 00 00 00 
  1092)     21830.219 1  Rx        0183 -  8    02 F1 00 2A 00 00 00 00 
  1093)     21850.358 1  Rx        0183 -  8    00 6F 05 7C 00 0F 0E 00 
  1094)     21870.240 1  Rx        0183 -  8    01 38 00 BF 02 00 00 00 
  1095)     21890.293 1  Rx        0183 -  8    00 6E 05 20 00 0F 0E 00 
  1096)     21910.218 1  Rx        0183 -  8    01 3B 00 C0 02 00 00 00 
  1097)     21930.228 1  Rx        0183 -  8    02 F2 00 2F 00 00 00 00 
  1098)     21950.324 1  Rx        0183 -  8    00 6D 05 3B 00 0F 0E 00 
  1099)     21970.249 1  Rx        0183 -  8    01 44 00 BF 02 00 00 00 
  1100)     21990.302 1  Rx        0183 -  8    00 6C 05 0B 00 0F 0E 00 
  1101)     22010.227 1  Rx        0183 -  8    01 35 00 BF 02 00 00 00 
  1102)     22030.238 1  Rx        0183 -  8    02 F2 00 2F 00 00 00 00 
  1103)     22050.333 1  Rx        0183 -  8    00 6A 05 0B 00 0F 0E 00 
  1104)     22070.216 1  Rx        0183 -  8    01 4D 00 BB 02 00 00 00 
  1105)     22090.311 1  Rx        0183 -  8    00 6A 05 05 00 0F 0E 00 
  1106)     22110.236 1  Rx        0183 -  8    01 51 00 BE 02 00 00 00 
  1107)     22130.247 1  Rx        0183 -  8    02 F2 00 28 00 00 00 00 
  1108)     22150.300 1  Rx        0183 -  8    00 69 05 7D 00 0F 0E 00 
  1109)     22170.225 1  Rx        0183 -  8    01 47 00 BA 02 00 00 00 
  1110)     22190.278 1  Rx        0183 -  8    00 68 05 20 00 0F 0E 00 
  1111)     22210.203 1  Rx        0183 -  8    01 4A 00 B9 02 00 00 00 
  1112)     22230.213 1  Rx        0183 -  8    02 F1 00 28 00 00 00 00 
  1113)     22250.266 1  Rx        0183 -  8    00 67 05 39 00 0F 0E 00 
  1114)     22270.264 1  Rx        0183 -  8    01 35 00 B9 02 00 00 00 
  1115)     22290.317 1  Rx        0183 -  8    00 66 05 81 00 0F 0E 00 
  1116)     22310.242 1  Rx        0183 -  8    01 44 00 B9 02 00 00 00 
  1117)     22330.252 1  Rx        0183 -  8    02 F1 00 25 00 00 00 00 
  1118)     22350.348 1  Rx        0183 -  8    00 65 05 0D 00 0F 0E 00 
  1119)     22370.230 1  Rx        0183 -  8    01 41 00 BE 02 00 00 00 
  1120)     22390.326 1  Rx        0183 -  8    00 65 05 07 00 0F 0E 00 
  1121)     22410.251 1  Rx        0183 -  8    01 3E 00 BA 02 00 00 00 
  1122)     22430.219 1  Rx        0183 -  8    02 F1 00 46 00 00 00 00 
  1123)     22450.314 1  Rx        0183 -  8    00 64 05 03 00 0F 0E 00 
  1124)     22470.239 1  Rx        0183 -  8    01 41 00 BE 02 00 00 00 
  1125)     22490.292 1  Rx        0183 -  8    00 64 05 22 00 0F 0E 00 
  1126)     22510.217 1  Rx        0183 -  8    01 44 00 BD 02 00 00 00 
  1127)     22530.228 1  Rx        0183 -  8    02 F1 00 2C 00 00 00 00 
  1128)     22550.323 1  Rx        0183 -  8    00 63 05 40 00 0F 0E 00 
  1129)     22570.248 1  Rx        0183 -  8    01 35 00 BD 02 00 00 00 
  1130)     22590.301 1  Rx        0183 -  8    00 63 05 86 00 0F 0E 00 
  1131)     22610.226 1  Rx        0183 -  8    01 35 00 BC 02 00 00 00 
  1132)     22630.237 1  Rx        0183 -  8    02 F1 00 23 00 00 00 00 
  1133)     22650.332 1  Rx        0183 -  8    00 62 05 0D 00 0F 0E 00 
  1134)     22670.215 1  Rx        0183 -  8    01 44 00 BD 02 00 00 00 
  1135)     22690.268 1  Rx        0183 -  8    00 62 05 75 00 0F 0E 00 
  1136)     22710.236 1  Rx        0183 -  8    01 60 00 BD 02 00 00 00 
  1137)     22730.203 1  Rx        0183 -  8    02 F1 00 3A 00 00 00 00 
  1138)     22750.299 1  Rx        0183 -  8    00 61 05 03 00 0F 0E 00 
  1139)     22770.224 1  Rx        0183 -  8    01 4D 00 C1 02 00 00 00 
  1140)     22790.277 1  Rx        0183 -  8    00 5E 05 20 00 0F 0E 00 
  1141)     22810.202 1  Rx        0183 -  8    01 47 00 C5 02 00 00 00 
  1142)     22830.212 1  Rx        0183 -  8    02 F2 00 52 00 00 00 00 
  1143)     22850.265 1  Rx        0183 -  8    00 5A 05 D9 00 0F 0E 00 
  1144)     22870.233 1  Rx        0183 -  8    01 4A 00 BF 02 00 00 00 
  1145)     22890.286 1  Rx        0183 -  8    00 57 05 7B 00 0F 0E 00 
  1146)     22910.211 1  Rx        0183 -  8    01 41 00 BF 02 00 00 00 
  1147)     22930.221 1  Rx        0183 -  8    02 F1 00 52 00 00 00 00 
  1148)     22950.317 1  Rx        0183 -  8    00 53 05 0C 00 0F 0E 00 
  1149)     22970.242 1  Rx        0183 -  8    01 44 00 BE 02 00 00 00 
  1150)     22990.295 1  Rx        0183 -  8    00 51 05 64 00 0F 0E 00 
  1151)     23010.220 1  Rx        0183 -  8    01 44 00 BE 02 00 00 00 
  1152)     23030.188 1  Rx        0183 -  8    02 F1 00 44 00 00 00 00 
  1153)     23050.284 1  Rx        0183 -  8    00 4E 05 04 00 0F 0E 00 
  1154)     23070.209 1  Rx        0183 -  8    01 38 00 BC 02 00 00 00 
  1155)     23090.262 1  Rx        0183 -  8    00 4C 05 0A 00 0F 0E 00 
  1156)     23110.229 1  Rx        0183 -  8    01 38 00 BC 02 00 00 00 
  1157)     23130.197 1  Rx        0183 -  8    02 F1 00 2F 00 00 00 00 
  1158)     23150.293 1  Rx        0183 -  8    00 49 05 44 00 0F 0E 00 
  1159)     23170.218 1  Rx        0183 -  8    01 4A 00 C1 02 00 00 00 
  1160)     23190.271 1  Rx        0183 -  8    00 47 05 7D 00 0F 0E 00 
  1161)     23210.196 1  Rx        0183 -  8    01 44 00 BD 02 00 00 00 
  1162)     23230.206 1  Rx        0183 -  8    02 F1 00 2A 00 00 00 00 
  1163)     23250.302 1  Rx        0183 -  8    00 45 05 75 00 0F 0E 00 
  1164)     23270.192 1  Rx        0183 -  8    01 3E 00 C1 02 00 00 00 
  1165)     23290.245 1  Rx        0183 -  8    00 43 05 6C 00 0F 0E 00 
  1166)     23310.170 1  Rx        0183 -  8    01 69 00 C1 02 00 00 00 
  1167)     23330.138 1  Rx        0183 -  8    02 F1 00 4B 00 00 00 00 
  1168)     23350.233 1  Rx        0183 -  8    00 41 05 04 00 0F 0E 00 
  1169)     23370.158 1  Rx        0183 -  8    01 35 00 C0 02 00 00 00 
  1170)     23390.211 1  Rx        0183 -  8    00 40 05 09 00 0F 0E 00 
  1171)     23410.179 1  Rx        0183 -  8    01 32 00 C0 02 00 00 00 
  1172)     23430.147 1  Rx        0183 -  8    02 F1 00 28 00 00 00 00 
  1173)     23450.200 1  Rx        0183 -  8    00 3F 05 59 00 0F 0E 00 
  1174)     23470.167 1  Rx        0183 -  8    01 51 00 BB 02 00 00 00 
  1175)     23490.220 1  Rx        0183 -  8    00 3E 05 03 00 0F 0E 00 
  1176)     23510.145 1  Rx        0183 -  8    01 3B 00 BE 02 00 00 00 
  1177)     23530.156 1  Rx        0183 -  8    02 F1 00 2C 00 00 00 00 
  1178)     23550.251 1  Rx        0183 -  8    00 3C 05 76 00 0F 0E 00 
  1179)     23570.134 1  Rx        0183 -  8    01 44 00 B9 02 00 00 00 
  1180)     23590.229 1  Rx        0183 -  8    00 3B 05 7A 00 0F 0E 00 
  1181)     23610.154 1  Rx        0183 -  8    01 3E 00 BF 02 00 00 00 
  1182)     23630.165 1  Rx        0183 -  8    02 F1 00 3F 00 00 00 00 
  1183)     23650.218 1  Rx        0183 -  8    00 3A 05 29 00 0F 0E 00 
  1184)     23670.143 1  Rx        0183 -  8    01 4D 00 B9 02 00 00 00 
  1185)     23690.196 1  Rx        0183 -  8    00 39 05 09 00 0F 0E 00 
  1186)     23710.121 1  Rx        0183 -  8    01 4D 00 BF 02 00 00 00 
  1187)     23730.131 1  Rx        0183 -  8    02 F1 00 2C 00 00 00 00 
  1188)     23750.184 1  Rx        0183 -  8    00 35 05 6F 00 0F 0E 00 
  1189)     23770.152 1  Rx        0183 -  8    01 3B 00 C0 02 00 00 00 
  1190)     23790.205 1  Rx        0183 -  8    00 32 05 02 00 0F 0E 00 
  1191)     23810.130 1  Rx        0183 -  8    01 41 00 BF 02 00 00 00 
  1192)     23830.140 1  Rx        0183 -  8    02 F1 00 2C 00 00 00 00 
  1193)     23850.236 1  Rx        0183 -  8    00 2E 05 6F 00 0F 0E 00 
  1194)     23870.118 1  Rx        0183 -  8    01 3B 00 C4 02 00 00 00 
  1195)     23890.171 1  Rx        0183 -  8    00 2B 05 47 00 0F 0E 00 
  1196)     23910.139 1  Rx        0183 -  8    01 35 00 BF 02 00 00 00 
  1197)     23930.107 1  Rx        0183 -  8    02 F1 00 21 00 00 00 00 
  1198)     23950.203 1  Rx        0183 -  8    00 27 05 27 00 0F 0E 00 
  1199)     23970.128 1  Rx        0183 -  8    01 3B 00 C2 02 00 00 00 
  1200)     23990.181 1  Rx        0183 -  8    00 25 05 0A 00 0F 0E 00 
  1201)     24010.148 1  Rx        0183 -  8    01 35 00 C3 02 00 00 00 
  1202)     24030.116 1  Rx        0183 -  8    02 F1 00 2C 00 00 00 00 
  1203)     24050.212 1  Rx        0183 -  8    00 22 05 09 00 0F 0E 00 
  1204)     24070.137 1  Rx        0183 -  8    01 38 00 C2 02 00 00 00 
  1205)     24090.190 1  Rx        0183 -  8    00 20 05 03 00 0F 0E 00 
  1206)     24110.115 1  Rx        0183 -  8    01 35 00 C1 02 00 00 00 
  1207)     24130.125 1  Rx        0183 -  8    02 F1 00 2A 00 00 00 00 
  1208)     24150.221 1  Rx        0183 -  8    00 1D 05 6D 00 0F 0E 00 
  1209)     24170.103 1  Rx        0183 -  8    01 41 00 BC 02 00 00 00 
  1210)     24190.199 1  Rx        0183 -  8    00 1C 05 4E 00 0F 0E 00 
  1211)     24210.124 1  Rx        0183 -  8    01 44 00 C1 02 00 00 00 
  1212)     24230.134 1  Rx        0183 -  8    02 F1 00 28 00 00 00 00 
  1213)     24250.187 1  Rx        0183 -  8    00 1A 05 2A 00 0F 0E 00 
  1214)     24270.142 1  Rx        0183 -  8    01 38 00 BA 02 00 00 00 
  1215)     24290.195 1  Rx        0183 -  8    00 18 05 62 00 0F 0E 00 
  1216)     24310.163 1  Rx        0183 -  8    01 3E 00 BF 02 00 00 00 
  1217)     24330.131 1  Rx        0183 -  8    02 F1 00 21 00 00 00 00 
  1218)     24350.184 1  Rx        0183 -  8    00 17 05 09 00 0F 0E 00 
  1219)     24370.151 1  Rx        0183 -  8    01 3E 00 BB 02 00 00 00 
  1220)     24390.204 1  Rx        0183 -  8    00 16 05 03 00 0F 0E 00 
  1221)     24410.129 1  Rx        0183 -  8    01 41 00 BA 02 00 00 00 
  1222)     24430.140 1  Rx        0183 -  8    02 F1 00 3A 00 00 00 00 
  1223)     24450.235 1  Rx        0183 -  8    00 13 05 14 00 0F 0E 00 
  1224)     24470.118 1  Rx        0183 -  8    01 47 00 C1 02 00 00 00 
  1225)     24490.213 1  Rx        0183 -  8    00 0F 05 52 00 0F 0E 00 
  1226)     24510.138 1  Rx        0183 -  8    01 47 00 C1 02 00 00 00 
  1227)     24530.106 1  Rx        0183 -  8    02 F2 00 2C 00 00 00 00 
  1228)     24550.202 1  Rx        0183 -  8    00 0A 05 30 00 0F 0E 00 
  1229)     24570.127 1  Rx        0183 -  8    01 35 00 C4 02 00 00 00 
  1230)     24590.180 1  Rx        0183 -  8    00 07 05 60 00 0F 0E 00 
  1231)     24610.148 1  Rx        0183 -  8    01 32 00 BF 02 00 00 00 
  1232)     24630.115 1  Rx        0183 -  8    02 F1 00 23 00 00 00 00 
  1233)     24650.211 1  Rx        0183 -  8    00 03 05 05 00 0F 0E 00 
  1234)     24670.136 1  Rx        0183 -  8    01 38 00 C2 02 00 00 00 
  1235)     24690.189 1  Rx        0183 -  8    00 01 05 4B 00 0F 0E 00 
  1236)     24710.114 1  Rx        0183 -  8    01 2E 00 C3 02 00 00 00 
  1237)     24730.124 1  Rx        0183 -  8    02 F1 00 3A 00 00 00 00 
  1238)     24750.220 1  Rx        0183 -  8    00 FD 04 18 00 0F 0E 00 
  1239)     24770.145 1  Rx        0183 -  8    01 44 00 C1 02 00 00 00 
  1240)     24790.198 1  Rx        0183 -  8    00 FB 04 57 00 0F 0E 00 
  1241)     24810.123 1  Rx        0183 -  8    01 32 00 C1 02 00 00 00 
  1242)     24830.133 1  Rx        0183 -  8    02 F1 00 2C 00 00 00 00 
  1243)     24850.186 1  Rx        0183 -  8    00 F9 04 6F 00 0F 0E 00 
  1244)     24870.111 1  Rx        0183 -  8    01 3B 00 C1 02 00 00 00 
  1245)     24890.164 1  Rx        0183 -  8    00 F7 04 5D 00 0F 0E 00 
  1246)     24910.132 1  Rx        0183 -  8    01 35 00 C0 02 00 00 00 
  1247)     24930.100 1  Rx        0183 -  8    02 F1 00 2C 00 00 00 00 
  1248)     24950.153 1  Rx        0183 -  8    00 F5 04 07 00 0F 0E 00 
  1249)     24970.121 1  Rx        0183 -  8    01 38 00 BC 02 00 00 00 
  1250)     24990.174 1  Rx        0183 -  8    00 F4 04 58 00 0F 0E 00 
  1251)     25010.099 1  Rx        0183 -  8    01 38 00 BF 02 00 00 00 
  1252)     25030.109 1  Rx        0183 -  8    02 F2 00 54 00 00 00 00 
  1253)     25050.205 1  Rx        0183 -  8    00 F2 04 19 00 0F 0E 00 
  1254)     25070.087 1  Rx        0183 -  8    01 3E 00 BB 02 00 00 00 
  1255)     25090.183 1  Rx        0183 -  8    00 F1 04 0A 00 0F 0E 00 
  1256)     25110.108 1  Rx        0183 -  8    01 38 00 BA 02 00 00 00 
  1257)     25130.075 1  Rx        0183 -  8    02 F2 00 33 00 00 00 00 
  1258)     25150.171 1  Rx        0183 -  8    00 F0 04 75 00 0F 0E 00 
  1259)     25170.096 1  Rx        0183 -  8    01 38 00 B9 02 00 00 00 
  1260)     25190.149 1  Rx        0183 -  8    00 EF 04 59 00 0F 0E 00 
  1261)     25210.074 1  Rx        0183 -  8    01 3B 00 B9 02 00 00 00 
  1262)     25230.085 1  Rx        0183 -  8    02 F2 00 2A 00 00 00 00 
  1263)     25250.138 1  Rx        0183 -  8    00 EE 04 4D 00 0F 0E 00 
  1264)     25270.036 1  Rx        0183 -  8    01 3B 00 BE 02 00 00 00 
  1265)     25290.089 1  Rx        0183 -  8    00 ED 04 52 00 0F 0E 00 
  1266)     25310.014 1  Rx        0183 -  8    01 38 00 B8 02 00 00 00 
  1267)     25330.025 1  Rx        0183 -  8    02 F2 00 25 00 00 00 00 
  1268)     25350.120 1  Rx        0183 -  8    00 ED 04 1B 00 0F 0E 00 
  1269)     25370.003 1  Rx        0183 -  8    01 2E 00 BE 02 00 00 00 
  1270)     25390.098 1  Rx        0183 -  8    00 EC 04 08 00 0F 0E 00 
  1271)     25410.023 1  Rx        0183 -  8    01 32 00 BE 02 00 00 00 
  1272)     25429.991 1  Rx        0183 -  8    02 F1 00 36 00 00 00 00 
  1273)     25450.087 1  Rx        0183 -  8    00 EB 04 69 00 0F 0E 00 
  1274)     25470.012 1  Rx        0183 -  8    01 32 00 BE 02 00 00 00 
  1275)     25490.065 1  Rx        0183 -  8    00 EB 04 0D 00 0F 0E 00 
  1276)     25509.990 1  Rx        0183 -  8    01 35 00 BC 02 00 00 00 
  1277)     25530.000 1  Rx        0183 -  8    02 F1 00 2A 00 00 00 00 
  1278)     25550.096 1  Rx        0183 -  8    00 EA 04 35 00 0F 0E 00 
  1279)     25570.021 1  Rx        0183 -  8    01 35 00 BE 02 00 00 00 
  1280)     25590.074 1  Rx        0183 -  8    00 EA 04 50 00 0F 0E 00 
  1281)     25609.999 1  Rx        0183 -  8    01 2E 00 BD 02 00 00 00 
  1282)     25630.009 1  Rx        0183 -  8    02 F2 00 2A 00 00 00 00 
  1283)     25650.105 1  Rx        0183 -  8    00 EA 04 1B 00 0F 0E 00 
  1284)     25669.987 1  Rx        0183 -  8    01 32 00 B8 02 00 00 00 
  1285)     25690.083 1  Rx        0183 -  8    00 E9 04 0A 00 0F 0E 00 
  1286)     25710.008 1  Rx        0183 -  8    01 3E 00 BD 02 00 00 00 
  1287)     25729.976 1  Rx        0183 -  8    02 F2 00 23 00 00 00 00 
  1288)     25750.071 1  Rx        0183 -  8    00 E9 04 64 00 0F 0E 00 
  1289)     25769.996 1  Rx        0183 -  8    01 35 00 B8 02 00 00 00 
  1290)     25790.049 1  Rx        0183 -  8    00 E9 04 0A 00 0F 0E 00 
  1291)     25809.974 1  Rx        0183 -  8    01 41 00 BD 02 00 00 00 
  1292)     25829.985 1  Rx        0183 -  8    02 F1 00 2A 00 00 00 00 
  1293)     25850.038 1  Rx        0183 -  8    00 E9 04 77 00 0F 0E 00 
  1294)     25870.006 1  Rx        0183 -  8    01 38 00 B9 02 00 00 00 
  1295)     25890.059 1  Rx        0183 -  8    00 E8 04 A8 00 0F 0E 00 
  1296)     25909.984 1  Rx        0183 -  8    01 3B 00 B7 02 00 00 00 
  1297)     25929.994 1  Rx        0183 -  8    02 F1 00 2A 00 00 00 00 
  1298)     25950.090 1  Rx        0183 -  8    00 E8 04 1D 00 0F 0E 00 
  1299)     25969.972 1  Rx        0183 -  8    01 3B 00 B9 02 00 00 00 
  1300)     25990.068 1  Rx        0183 -  8    00 E8 04 0A 00 0F 0E 00 
  1301)     26009.993 1  Rx        0183 -  8    01 41 00 B7 02 00 00 00 
  1302)     26030.003 1  Rx        0183 -  8    02 F2 00 28 00 00 00 00 
  1303)     26050.056 1  Rx        0183 -  8    00 E8 04 07 00 0F 0E 00 
  1304)     26069.981 1  Rx        0183 -  8    01 28 00 BC 02 00 00 00 
  1305)     26090.034 1  Rx        0183 -  8    00 E8 04 16 00 0F 0E 00 
  1306)     26109.959 1  Rx        0183 -  8    01 2E 00 B7 02 00 00 00 
  1307)     26129.969 1  Rx        0183 -  8    02 F2 00 1E 00 00 00 00 
  1308)     26150.065 1  Rx        0183 -  8    00 E8 04 FA 00 0F 0E 00 
  1309)     26169.990 1  Rx        0183 -  8    01 32 00 BC 02 00 00 00 
  1310)     26190.043 1  Rx        0183 -  8    00 E8 04 9E 00 0F 0E 00 
  1311)     26209.968 1  Rx        0183 -  8    01 35 00 BC 02 00 00 00 
  1312)     26229.979 1  Rx        0183 -  8    02 F2 00 2C 00 00 00 00 
  1313)     26250.074 1  Rx        0183 -  8    00 E8 04 1E 00 0F 0E 00 
  1314)     26270.029 1  Rx        0183 -  8    01 3E 00 BD 02 00 00 00 
  1315)     26290.082 1  Rx        0183 -  8    00 E8 04 58 00 0F 0E 00 
  1316)     26310.007 1  Rx        0183 -  8    01 35 00 BC 02 00 00 00 
  1317)     26329.975 1  Rx        0183 -  8    02 F2 00 2A 00 00 00 00 
  1318)     26350.071 1  Rx        0183 -  8    00 E8 04 07 00 0F 0E 00 
  1319)     26369.996 1  Rx        0183 -  8    01 44 00 B8 02 00 00 00 
  1320)     26390.049 1  Rx        0183 -  8    00 E8 04 0F 00 0F 0E 00 
  1321)     26410.016 1  Rx        0183 -  8    01 3E 00 BB 02 00 00 00 
  1322)     26429.984 1  Rx        0183 -  8    02 F2 00 4B 00 00 00 00 
  1323)     26450.037 1  Rx        0183 -  8    00 E8 04 32 00 0F 0E 00 
  1324)     26470.005 1  Rx        0183 -  8    01 41 00 B6 02 00 00 00 
  1325)     26490.058 1  Rx        0183 -  8    00 E8 04 49 00 0F 0E 00 
  1326)     26509.983 1  Rx        0183 -  8    01 38 00 BC 02 00 00 00 
  1327)     26529.993 1  Rx        0183 -  8    02 F1 00 31 00 00 00 00 
  1328)     26550.089 1  Rx        0183 -  8    00 E8 04 20 00 0F 0E 00 
  1329)     26569.971 1  Rx        0183 -  8    01 38 00 B7 02 00 00 00 
  1330)     26590.067 1  Rx        0183 -  8    00 E8 04 58 00 0F 0E 00 
  1331)     26609.992 1  Rx        0183 -  8    01 38 00 B7 02 00 00 00 
  1332)     26630.002 1  Rx        0183 -  8    02 F1 00 2C 00 00 00 00 
  1333)     26650.055 1  Rx        0183 -  8    00 E8 04 08 00 0F 0E 00 
  1334)     26669.980 1  Rx        0183 -  8    01 2B 00 BE 02 00 00 00 
  1335)     26690.033 1  Rx        0183 -  8    00 E8 04 3C 00 0F 0E 00 
  1336)     26709.958 1  Rx        0183 -  8    01 35 00 B7 02 00 00 00 
  1337)     26729.969 1  Rx        0183 -  8    02 F1 00 3A 00 00 00 00 
  1338)     26750.022 1  Rx        0183 -  8    00 E8 04 2F 00 0F 0E 00 
  1339)     26769.989 1  Rx        0183 -  8    01 35 00 BB 02 00 00 00 
  1340)     26790.042 1  Rx        0183 -  8    00 E8 04 75 00 0F 0E 00 
  1341)     26809.967 1  Rx        0183 -  8    01 2E 00 B7 02 00 00 00 
  1342)     26829.978 1  Rx        0183 -  8    02 F1 00 36 00 00 00 00 
  1343)     26850.074 1  Rx        0183 -  8    00 E8 04 65 00 0F 0E 00 
  1344)     26869.956 1  Rx        0183 -  8    01 44 00 BD 02 00 00 00 
  1345)     26890.009 1  Rx        0183 -  8    00 E8 04 59 00 0F 0E 00 
  1346)     26909.977 1  Rx        0183 -  8    01 2B 00 C1 02 00 00 00 
  1347)     26929.987 1  Rx        0183 -  8    02 F1 00 2C 00 00 00 00 
  1348)     26950.040 1  Rx        0183 -  8    00 E8 04 06 00 0F 0E 00 
  1349)     26969.965 1  Rx        0183 -  8    01 3E 00 BC 02 00 00 00 
  1350)     26990.018 1  Rx        0183 -  8    00 E8 04 3A 00 0F 0E 00 
  1351)     27009.943 1  Rx        0183 -  8    01 25 00 C4 02 00 00 00 
  1352)     27029.953 1  Rx        0183 -  8    02 F1 00 2C 00 00 00 00 
  1353)     27050.006 1  Rx        0183 -  8    00 E8 04 2E 00 0F 0E 00 
  1354)     27069.974 1  Rx        0183 -  8    01 32 00 BC 02 00 00 00 
  1355)     27090.027 1  Rx        0183 -  8    00 E8 04 07 00 0F 0E 00 
