;$FILEVERSION=1.3
;$STARTTIME=44417.6270380859
;
;   C:\Users\saniea.akhtar\Documents\Software\25.05.21\sw20200507\_doc_\PCANExplorer\Trace_3 - 09.08.21.trc
;   Start time: 09/08/2021 15:02:56.090.6
;   Generated by PCAN-Explorer v5.4.2
;-------------------------------------------------------------------------------
;   Bus  Name         Connection           Protocol  Bit rate
;   1    Connection1  ControlCAN@pcan_usb  CAN       250 kbit/s
;-------------------------------------------------------------------------------
;   Message Number
;   |         Time Offset (ms)
;   |         |       Bus
;   |         |       |    Type
;   |         |       |    |       ID (hex)
;   |         |       |    |       |    Reserved
;   |         |       |    |       |    |   Data Length Code
;   |         |       |    |       |    |   |    Data Bytes (hex) ...
;   |         |       |    |       |    |   |    |
;   |         |       |    |       |    |   |    |
;---+-- ------+------ +- --+-- ----+--- +- -+-- -+ -- -- -- -- -- -- --
     1)         4.745 1  Rx        0183 -  8    01 3B 00 15 00 00 00 00 
     2)        24.798 1  Rx        0183 -  8    00 08 07 03 00 0F 0E 00 
     3)        25.310 1  Rx        0283 -  8    01 00 00 00 00 00 00 00 
     4)        25.779 1  Rx        0383 -  8    01 3B 3C 34 01 00 00 00 
     5)        44.765 1  Rx        0183 -  8    01 41 00 15 00 00 00 00 
     6)        64.763 1  Rx        0183 -  8    02 F2 00 28 00 00 00 00 
     7)        84.859 1  Rx        0183 -  8    00 08 07 03 00 0F 0E 00 
     8)       104.784 1  Rx        0183 -  8    01 41 00 15 00 00 00 00 
     9)       124.837 1  Rx        0183 -  8    00 08 07 03 00 0F 0E 00 
    10)       125.349 1  Rx        0283 -  8    01 00 00 00 00 00 00 00 
    11)       125.818 1  Rx        0383 -  8    02 00 00 34 00 00 00 00 
    12)       144.762 1  Rx        0183 -  8    01 3E 00 15 00 00 00 00 
    13)       164.772 1  Rx        0183 -  8    02 F1 00 2C 00 00 00 00 
    14)       184.868 1  Rx        0183 -  8    00 08 07 03 00 0F 0E 00 
    15)       204.750 1  Rx        0183 -  8    01 3B 00 15 00 00 00 00 
    16)       224.846 1  Rx        0183 -  8    00 08 07 03 00 0F 0E 00 
    17)       225.358 1  Rx        0283 -  8    01 00 00 00 00 00 00 00 
    18)       225.827 1  Rx        0383 -  8    00 45 45 45 4D 00 00 00 
    19)       244.771 1  Rx        0183 -  8    01 3E 00 15 00 00 00 00 
    20)       264.781 1  Rx        0183 -  8    02 F2 00 2C 00 00 00 00 
    21)       284.834 1  Rx        0183 -  8    00 08 07 03 00 0F 0E 00 
    22)       304.759 1  Rx        0183 -  8    01 3B 00 15 00 00 00 00 
    23)       324.855 1  Rx        0183 -  8    00 08 07 03 00 0F 0E 00 
    24)       325.324 1  Rx        0283 -  8    01 00 00 00 00 00 00 00 
    25)       325.836 1  Rx        0383 -  8    01 3B 3C 34 01 00 00 00 
    26)       344.780 1  Rx        0183 -  8    01 38 00 15 00 00 00 00 
    27)       364.748 1  Rx        0183 -  8    02 F2 00 2A 00 00 00 00 
    28)       384.843 1  Rx        0183 -  8    00 08 07 03 00 0F 0E 00 
    29)       404.768 1  Rx        0183 -  8    01 3E 00 15 00 00 00 00 
    30)       424.821 1  Rx        0183 -  8    00 08 07 03 00 0F 0E 00 
    31)       425.333 1  Rx        0283 -  8    01 00 00 00 00 00 00 00 
    32)       425.803 1  Rx        0383 -  8    02 00 00 34 00 00 00 00 
    33)       444.746 1  Rx        0183 -  8    01 3E 00 15 00 00 00 00 
    34)       464.757 1  Rx        0183 -  8    02 F2 00 2C 00 00 00 00 
    35)       484.853 1  Rx        0183 -  8    00 08 07 03 00 0F 0E 00 
    36)       504.778 1  Rx        0183 -  8    01 3B 00 15 00 00 00 00 
    37)       524.831 1  Rx        0183 -  8    00 08 07 03 00 0F 0E 00 
    38)       525.343 1  Rx        0283 -  8    01 00 00 00 00 00 00 00 
    39)       525.812 1  Rx        0383 -  8    00 45 45 45 4E 00 00 00 
    40)       544.756 1  Rx        0183 -  8    01 38 00 15 00 00 00 00 
    41)       564.766 1  Rx        0183 -  8    02 F2 00 2F 00 00 00 00 
    42)       584.819 1  Rx        0183 -  8    00 08 07 03 00 0F 0E 00 
    43)       604.744 1  Rx        0183 -  8    01 3B 00 15 00 00 00 00 
    44)       624.840 1  Rx        0183 -  8    00 08 07 03 00 0F 0E 00 
    45)       625.309 1  Rx        0283 -  8    01 00 00 00 00 00 00 00 
    46)       625.778 1  Rx        0383 -  8    01 3B 3C 34 01 00 00 00 
    47)       644.765 1  Rx        0183 -  8    01 38 00 15 00 00 00 00 
    48)       664.732 1  Rx        0183 -  8    02 F2 00 2A 00 00 00 00 
    49)       684.828 1  Rx        0183 -  8    00 08 07 03 00 0F 0E 00 
    50)       704.753 1  Rx        0183 -  8    01 3B 00 15 00 00 00 00 
    51)       724.806 1  Rx        0183 -  8    00 08 07 03 00 0F 0E 00 
    52)       725.318 1  Rx        0283 -  8    01 00 00 00 00 00 00 00 
    53)       725.787 1  Rx        0383 -  8    02 00 00 34 00 00 00 00 
    54)       744.731 1  Rx        0183 -  8    01 3B 00 15 00 00 00 00 
    55)       764.741 1  Rx        0183 -  8    02 F2 00 2C 00 00 00 00 
    56)       784.837 1  Rx        0183 -  8    00 08 07 03 00 0F 0E 00 
    57)       804.762 1  Rx        0183 -  8    01 3E 00 15 00 00 00 00 
    58)       824.815 1  Rx        0183 -  8    00 08 07 03 00 0F 0E 00 
    59)       825.327 1  Rx        0283 -  8    01 00 00 00 00 00 00 00 
    60)       825.797 1  Rx        0383 -  8    00 45 45 45 4E 00 00 00 
    61)       844.740 1  Rx        0183 -  8    01 3B 00 15 00 00 00 00 
    62)       864.751 1  Rx        0183 -  8    02 F2 00 2A 00 00 00 00 
    63)       884.804 1  Rx        0183 -  8    00 08 07 03 00 0F 0E 00 
    64)       904.729 1  Rx        0183 -  8    01 3B 00 15 00 00 00 00 
    65)       924.782 1  Rx        0183 -  8    00 08 07 03 00 0F 0E 00 
    66)       925.294 1  Rx        0283 -  8    01 00 00 00 00 00 00 00 
    67)       925.763 1  Rx        0383 -  8    01 3B 3C 34 01 00 00 00 
    68)       944.749 1  Rx        0183 -  8    01 3E 00 16 00 00 00 00 
    69)       964.717 1  Rx        0183 -  8    02 F1 00 2C 00 00 00 00 
    70)       984.813 1  Rx        0183 -  8    00 08 07 03 00 0F 0E 00 
    71)      1004.738 1  Rx        0183 -  8    01 3E 00 15 00 00 00 00 
    72)      1024.791 1  Rx        0183 -  8    00 08 07 03 00 0F 0E 00 
    73)      1025.303 1  Rx        0283 -  8    01 00 00 00 00 00 00 00 
    74)      1025.772 1  Rx        0383 -  8    02 00 00 34 00 00 00 00 
    75)      1044.716 1  Rx        0183 -  8    01 41 00 15 00 00 00 00 
    76)      1064.744 1  Rx        0183 -  8    02 F2 00 2A 00 00 00 00 
    77)      1084.840 1  Rx        0183 -  8    00 08 07 03 00 0F 0E 00 
    78)      1104.722 1  Rx        0183 -  8    01 3B 00 15 00 00 00 00 
    79)      1124.818 1  Rx        0183 -  8    00 08 07 03 00 0F 0E 00 
    80)      1125.330 1  Rx        0283 -  8    01 00 00 00 00 00 00 00 
    81)      1125.799 1  Rx        0383 -  8    00 45 45 45 4D 00 00 00 
    82)      1144.743 1  Rx        0183 -  8    01 3B 00 15 00 00 00 00 
    83)      1164.753 1  Rx        0183 -  8    02 F1 00 28 00 00 00 00 
    84)      1184.806 1  Rx        0183 -  8    00 08 07 03 00 0F 0E 00 
    85)      1204.731 1  Rx        0183 -  8    01 3E 00 15 00 00 00 00 
    86)      1224.827 1  Rx        0183 -  8    00 08 07 03 00 0F 0E 00 
    87)      1225.296 1  Rx        0283 -  8    01 00 00 00 00 00 00 00 
    88)      1225.766 1  Rx        0383 -  8    01 3B 3C 34 01 00 00 00 
    89)      1244.752 1  Rx        0183 -  8    01 38 00 15 00 00 00 00 
    90)      1264.720 1  Rx        0183 -  8    02 F1 00 2A 00 00 00 00 
    91)      1284.815 1  Rx        0183 -  8    00 08 07 03 00 0F 0E 00 
    92)      1304.740 1  Rx        0183 -  8    01 41 00 15 00 00 00 00 
    93)      1324.793 1  Rx        0183 -  8    00 08 07 03 00 0F 0E 00 
    94)      1325.305 1  Rx        0283 -  8    01 00 00 00 00 00 00 00 
    95)      1325.775 1  Rx        0383 -  8    02 00 00 34 00 00 00 00 
    96)      1344.718 1  Rx        0183 -  8    01 3E 00 15 00 00 00 00 
    97)      1364.729 1  Rx        0183 -  8    02 F2 00 28 00 00 00 00 
    98)      1384.824 1  Rx        0183 -  8    00 08 07 03 00 0F 0E 00 
    99)      1404.707 1  Rx        0183 -  8    01 3B 00 15 00 00 00 00 
   100)      1424.803 1  Rx        0183 -  8    00 08 07 03 00 0F 0E 00 
   101)      1425.314 1  Rx        0283 -  8    01 00 00 00 00 00 00 00 
   102)      1425.784 1  Rx        0383 -  8    00 45 45 45 4D 00 00 00 
   103)      1444.728 1  Rx        0183 -  8    01 3B 00 15 00 00 00 00 
   104)      1464.738 1  Rx        0183 -  8    02 F1 00 2C 00 00 00 00 
   105)      1484.791 1  Rx        0183 -  8    00 08 07 03 00 0F 0E 00 
   106)      1504.716 1  Rx        0183 -  8    01 3B 00 15 00 00 00 00 
   107)      1524.769 1  Rx        0183 -  8    00 08 07 02 00 0F 0E 00 
   108)      1525.281 1  Rx        0283 -  8    01 00 00 00 00 00 00 00 
   109)      1525.750 1  Rx        0383 -  8    01 3B 3C 34 01 00 00 00 
   110)      1544.737 1  Rx        0183 -  8    01 41 00 15 00 00 00 00 
   111)      1564.704 1  Rx        0183 -  8    02 F2 00 2A 00 00 00 00 
   112)      1584.800 1  Rx        0183 -  8    00 08 07 03 00 0F 0E 00 
   113)      1604.725 1  Rx        0183 -  8    01 3B 00 15 00 00 00 00 
   114)      1624.778 1  Rx        0183 -  8    00 08 07 03 00 0F 0E 00 
   115)      1625.290 1  Rx        0283 -  8    01 00 00 00 00 00 00 00 
   116)      1625.759 1  Rx        0383 -  8    02 00 00 34 00 00 00 00 
   117)      1644.703 1  Rx        0183 -  8    01 38 00 15 00 00 00 00 
   118)      1664.713 1  Rx        0183 -  8    02 F2 00 2C 00 00 00 00 
   119)      1684.809 1  Rx        0183 -  8    00 08 07 03 00 0F 0E 00 
   120)      1704.691 1  Rx        0183 -  8    01 3B 00 15 00 00 00 00 
   121)      1724.787 1  Rx        0183 -  8    00 08 07 03 00 0F 0E 00 
   122)      1725.299 1  Rx        0283 -  8    01 00 00 00 00 00 00 00 
   123)      1725.768 1  Rx        0383 -  8    00 45 45 45 4D 00 00 00 
   124)      1744.712 1  Rx        0183 -  8    01 38 00 15 00 00 00 00 
   125)      1764.723 1  Rx        0183 -  8    02 F2 00 2F 00 00 00 00 
   126)      1784.776 1  Rx        0183 -  8    00 08 07 03 00 0F 0E 00 
   127)      1804.701 1  Rx        0183 -  8    01 3B 00 14 00 00 00 00 
   128)      1824.796 1  Rx        0183 -  8    00 08 07 03 00 0F 0E 00 
   129)      1825.266 1  Rx        0283 -  8    01 00 00 00 00 00 00 00 
   130)      1825.778 1  Rx        0383 -  8    01 3B 3C 34 01 00 00 00 
   131)      1844.721 1  Rx        0183 -  8    01 41 00 15 00 00 00 00 
   132)      1864.689 1  Rx        0183 -  8    02 F2 00 28 00 00 00 00 
   133)      1884.785 1  Rx        0183 -  8    00 08 07 03 00 0F 0E 00 
   134)      1904.710 1  Rx        0183 -  8    01 32 00 15 00 00 00 00 
   135)      1924.763 1  Rx        0183 -  8    00 08 07 03 00 0F 0E 00 
   136)      1925.275 1  Rx        0283 -  8    01 00 00 00 00 00 00 00 
   137)      1925.744 1  Rx        0383 -  8    02 00 00 34 00 00 00 00 
   138)      1944.688 1  Rx        0183 -  8    01 3E 00 15 00 00 00 00 
   139)      1964.698 1  Rx        0183 -  8    02 F2 00 2A 00 00 00 00 
   140)      1984.794 1  Rx        0183 -  8    00 08 07 03 00 0F 0E 00 
   141)      2004.719 1  Rx        0183 -  8    01 3E 00 15 00 00 00 00 
   142)      2024.772 1  Rx        0183 -  8    00 08 07 03 00 0F 0E 00 
   143)      2025.284 1  Rx        0283 -  8    01 00 00 00 00 00 00 00 
   144)      2025.753 1  Rx        0383 -  8    00 45 45 45 4E 00 00 00 
   145)      2044.697 1  Rx        0183 -  8    01 3B 00 15 00 00 00 00 
   146)      2064.702 1  Rx        0183 -  8    02 F2 00 2A 00 00 00 00 
   147)      2084.755 1  Rx        0183 -  8    00 08 07 03 00 0F 0E 00 
   148)      2104.680 1  Rx        0183 -  8    01 3B 00 15 00 00 00 00 
   149)      2124.733 1  Rx        0183 -  8    00 08 07 03 00 0F 0E 00 
   150)      2125.245 1  Rx        0283 -  8    01 00 00 00 00 00 00 00 
   151)      2125.715 1  Rx        0383 -  8    01 3B 3C 34 01 00 00 00 
   152)      2144.701 1  Rx        0183 -  8    01 3B 00 15 00 00 00 00 
   153)      2164.669 1  Rx        0183 -  8    02 F2 00 2A 00 00 00 00 
   154)      2184.764 1  Rx        0183 -  8    00 08 07 03 00 0F 0E 00 
   155)      2204.689 1  Rx        0183 -  8    01 3B 00 15 00 00 00 00 
   156)      2224.742 1  Rx        0183 -  8    00 08 07 03 00 0F 0E 00 
   157)      2225.254 1  Rx        0283 -  8    01 00 00 00 00 00 00 00 
   158)      2225.724 1  Rx        0383 -  8    02 00 00 34 00 00 00 00 
   159)      2244.667 1  Rx        0183 -  8    01 3B 00 15 00 00 00 00 
   160)      2264.678 1  Rx        0183 -  8    02 F2 00 25 00 00 00 00 
   161)      2284.773 1  Rx        0183 -  8    00 08 07 03 00 0F 0E 00 
   162)      2304.656 1  Rx        0183 -  8    01 38 00 15 00 00 00 00 
   163)      2324.751 1  Rx        0183 -  8    00 08 07 03 00 0F 0E 00 
   164)      2325.263 1  Rx        0283 -  8    01 00 00 00 00 00 00 00 
   165)      2325.733 1  Rx        0383 -  8    00 45 45 45 4D 00 00 00 
   166)      2344.676 1  Rx        0183 -  8    01 3B 00 15 00 00 00 00 
   167)      2364.687 1  Rx        0183 -  8    02 F2 00 2C 00 00 00 00 
   168)      2384.740 1  Rx        0183 -  8    00 08 07 03 00 0F 0E 00 
   169)      2404.665 1  Rx        0183 -  8    01 3B 00 15 00 00 00 00 
   170)      2424.718 1  Rx        0183 -  8    00 08 07 03 00 0F 0E 00 
   171)      2425.230 1  Rx        0283 -  8    01 00 00 00 00 00 00 00 
   172)      2425.699 1  Rx        0383 -  8    01 3B 3C 34 01 00 00 00 
   173)      2444.686 1  Rx        0183 -  8    01 3B 00 15 00 00 00 00 
   174)      2464.653 1  Rx        0183 -  8    02 F1 00 2C 00 00 00 00 
   175)      2484.749 1  Rx        0183 -  8    00 08 07 03 00 0F 0E 00 
   176)      2504.674 1  Rx        0183 -  8    01 3B 00 15 00 00 00 00 
   177)      2524.727 1  Rx        0183 -  8    00 08 07 03 00 0F 0E 00 
   178)      2525.239 1  Rx        0283 -  8    01 00 00 00 00 00 00 00 
   179)      2525.708 1  Rx        0383 -  8    02 00 00 34 00 00 00 00 
   180)      2544.652 1  Rx        0183 -  8    01 3B 00 15 00 00 00 00 
   181)      2564.662 1  Rx        0183 -  8    02 F2 00 2A 00 00 00 00 
   182)      2584.758 1  Rx        0183 -  8    00 08 07 03 00 0F 0E 00 
   183)      2604.683 1  Rx        0183 -  8    01 3B 00 15 00 00 00 00 
   184)      2624.736 1  Rx        0183 -  8    00 08 07 03 00 0F 0E 00 
   185)      2625.248 1  Rx        0283 -  8    01 00 00 00 00 00 00 00 
   186)      2625.717 1  Rx        0383 -  8    00 45 45 45 4D 00 00 00 
   187)      2644.661 1  Rx        0183 -  8    01 3B 00 15 00 00 00 00 
   188)      2664.671 1  Rx        0183 -  8    02 F1 00 2A 00 00 00 00 
   189)      2684.724 1  Rx        0183 -  8    00 08 07 03 00 0F 0E 00 
   190)      2704.650 1  Rx        0183 -  8    01 3E 00 15 00 00 00 00 
   191)      2724.745 1  Rx        0183 -  8    00 08 07 03 00 0F 0E 00 
   192)      2725.215 1  Rx        0283 -  8    01 00 00 00 00 00 00 00 
   193)      2725.684 1  Rx        0383 -  8    01 3B 3C 34 01 00 00 00 
   194)      2744.670 1  Rx        0183 -  8    01 3E 00 15 00 00 00 00 
   195)      2764.638 1  Rx        0183 -  8    02 F2 00 28 00 00 00 00 
   196)      2784.734 1  Rx        0183 -  8    00 08 07 03 00 0F 0E 00 
   197)      2804.659 1  Rx        0183 -  8    01 3B 00 15 00 00 00 00 
   198)      2824.712 1  Rx        0183 -  8    00 08 07 03 00 0F 0E 00 
   199)      2825.224 1  Rx        0283 -  8    01 00 00 00 00 00 00 00 
   200)      2825.693 1  Rx        0383 -  8    02 00 00 34 00 00 00 00 
   201)      2844.637 1  Rx        0183 -  8    01 3E 00 15 00 00 00 00 
   202)      2864.647 1  Rx        0183 -  8    02 F1 00 28 00 00 00 00 
   203)      2884.743 1  Rx        0183 -  8    00 08 07 03 00 0F 0E 00 
   204)      2904.668 1  Rx        0183 -  8    01 3B 00 16 00 00 00 00 
   205)      2924.721 1  Rx        0183 -  8    00 08 07 03 00 0F 0E 00 
   206)      2925.233 1  Rx        0283 -  8    01 00 00 00 00 00 00 00 
   207)      2925.702 1  Rx        0383 -  8    00 45 45 45 4D 00 00 00 
   208)      2944.646 1  Rx        0183 -  8    01 3B 00 15 00 00 00 00 
   209)      2964.656 1  Rx        0183 -  8    02 F2 00 2F 00 00 00 00 
   210)      2984.709 1  Rx        0183 -  8    00 08 07 03 00 0F 0E 00 
   211)      3004.634 1  Rx        0183 -  8    01 3B 00 15 00 00 00 00 
   212)      3024.687 1  Rx        0183 -  8    00 08 07 03 00 0F 0E 00 
   213)      3025.199 1  Rx        0283 -  8    01 00 00 00 00 00 00 00 
   214)      3025.668 1  Rx        0383 -  8    01 3B 3C 34 01 00 00 00 
   215)      3044.655 1  Rx        0183 -  8    01 3B 00 15 00 00 00 00 
   216)      3064.609 1  Rx        0183 -  8    02 F2 00 28 00 00 00 00 
   217)      3084.704 1  Rx        0183 -  8    00 08 07 03 00 0F 0E 00 
   218)      3104.629 1  Rx        0183 -  8    01 38 00 15 00 00 00 00 
   219)      3124.682 1  Rx        0183 -  8    00 08 07 03 00 0F 0E 00 
   220)      3125.194 1  Rx        0283 -  8    01 00 00 00 00 00 00 00 
   221)      3125.664 1  Rx        0383 -  8    02 00 00 34 00 00 00 00 
   222)      3144.607 1  Rx        0183 -  8    01 3B 00 15 00 00 00 00 
   223)      3164.618 1  Rx        0183 -  8    02 F2 00 28 00 00 00 00 
   224)      3184.713 1  Rx        0183 -  8    00 08 07 03 00 0F 0E 00 
   225)      3204.638 1  Rx        0183 -  8    01 3E 00 15 00 00 00 00 
   226)      3224.691 1  Rx        0183 -  8    00 08 07 03 00 0F 0E 00 
   227)      3225.203 1  Rx        0283 -  8    01 00 00 00 00 00 00 00 
   228)      3225.673 1  Rx        0383 -  8    00 45 45 45 4E 00 00 00 
   229)      3244.616 1  Rx        0183 -  8    01 41 00 15 00 00 00 00 
   230)      3264.627 1  Rx        0183 -  8    02 F1 00 2C 00 00 00 00 
   231)      3284.680 1  Rx        0183 -  8    00 08 07 03 00 0F 0E 00 
   232)      3304.605 1  Rx        0183 -  8    01 3B 00 15 00 00 00 00 
   233)      3324.700 1  Rx        0183 -  8    00 08 07 03 00 0F 0E 00 
   234)      3325.170 1  Rx        0283 -  8    01 00 00 00 00 00 00 00 
   235)      3325.639 1  Rx        0383 -  8    01 3B 3C 34 01 00 00 00 
   236)      3344.626 1  Rx        0183 -  8    01 3E 00 15 00 00 00 00 
   237)      3364.593 1  Rx        0183 -  8    02 F2 00 2C 00 00 00 00 
   238)      3384.689 1  Rx        0183 -  8    00 08 07 03 00 0F 0E 00 
   239)      3404.614 1  Rx        0183 -  8    01 38 00 15 00 00 00 00 
   240)      3424.667 1  Rx        0183 -  8    00 08 07 02 00 0F 0E 00 
   241)      3425.179 1  Rx        0283 -  8    01 00 00 00 00 00 00 00 
   242)      3425.648 1  Rx        0383 -  8    02 00 00 34 00 00 00 00 
   243)      3444.592 1  Rx        0183 -  8    01 3B 00 16 00 00 00 00 
   244)      3464.602 1  Rx        0183 -  8    02 F2 00 2C 00 00 00 00 
   245)      3484.698 1  Rx        0183 -  8    00 08 07 03 00 0F 0E 00 
   246)      3504.623 1  Rx        0183 -  8    01 41 00 15 00 00 00 00 
   247)      3524.676 1  Rx        0183 -  8    00 08 07 03 00 0F 0E 00 
   248)      3525.188 1  Rx        0283 -  8    01 00 00 00 00 00 00 00 
   249)      3525.657 1  Rx        0383 -  8    00 45 45 45 4D 00 00 00 
   250)      3544.601 1  Rx        0183 -  8    01 41 00 15 00 00 00 00 
   251)      3564.611 1  Rx        0183 -  8    02 F1 00 25 00 00 00 00 
   252)      3584.664 1  Rx        0183 -  8    00 08 07 03 00 0F 0E 00 
   253)      3604.589 1  Rx        0183 -  8    01 38 00 15 00 00 00 00 
   254)      3624.642 1  Rx        0183 -  8    00 08 07 03 00 0F 0E 00 
   255)      3625.154 1  Rx        0283 -  8    01 00 00 00 00 00 00 00 
   256)      3625.624 1  Rx        0383 -  8    01 3B 3C 34 01 00 00 00 
   257)      3644.610 1  Rx        0183 -  8    01 3E 00 15 00 00 00 00 
   258)      3664.578 1  Rx        0183 -  8    02 F2 00 2C 00 00 00 00 
   259)      3684.674 1  Rx        0183 -  8    00 08 07 03 00 0F 0E 00 
   260)      3704.599 1  Rx        0183 -  8    01 41 00 15 00 00 00 00 
   261)      3724.652 1  Rx        0183 -  8    00 08 07 03 00 0F 0E 00 
   262)      3725.164 1  Rx        0283 -  8    01 00 00 00 00 00 00 00 
   263)      3725.633 1  Rx        0383 -  8    02 00 00 34 00 00 00 00 
   264)      3744.577 1  Rx        0183 -  8    01 3E 00 15 00 00 00 00 
   265)      3764.587 1  Rx        0183 -  8    02 F2 00 2A 00 00 00 00 
   266)      3784.683 1  Rx        0183 -  8    00 08 07 03 00 0F 0E 00 
   267)      3804.608 1  Rx        0183 -  8    01 41 00 15 00 00 00 00 
   268)      3824.661 1  Rx        0183 -  8    00 08 07 03 00 0F 0E 00 
   269)      3825.173 1  Rx        0283 -  8    01 00 00 00 00 00 00 00 
   270)      3825.642 1  Rx        0383 -  8    00 45 45 45 4D 00 00 00 
   271)      3844.586 1  Rx        0183 -  8    01 3B 00 15 00 00 00 00 
   272)      3864.596 1  Rx        0183 -  8    02 F1 00 2A 00 00 00 00 
   273)      3884.649 1  Rx        0183 -  8    00 08 07 03 00 0F 0E 00 
   274)      3904.574 1  Rx        0183 -  8    01 3B 00 15 00 00 00 00 
   275)      3924.627 1  Rx        0183 -  8    00 08 07 04 00 0F 0E 00 
   276)      3925.139 1  Rx        0283 -  8    01 00 00 00 00 00 00 00 
   277)      3925.608 1  Rx        0383 -  8    01 3B 3C 34 01 00 00 00 
   278)      3944.595 1  Rx        0183 -  8    01 3E 00 15 00 00 00 00 
   279)      3964.562 1  Rx        0183 -  8    02 F2 00 2C 00 00 00 00 
   280)      3984.658 1  Rx        0183 -  8    00 08 07 03 00 0F 0E 00 
   281)      4004.583 1  Rx        0183 -  8    01 3B 00 14 00 00 00 00 
   282)      4024.636 1  Rx        0183 -  8    00 08 07 03 00 0F 0E 00 
   283)      4025.148 1  Rx        0283 -  8    01 00 00 00 00 00 00 00 
   284)      4025.618 1  Rx        0383 -  8    02 00 00 34 00 00 00 00 
   285)      4044.561 1  Rx        0183 -  8    01 3B 00 15 00 00 00 00 
   286)      4064.602 1  Rx        0183 -  8    02 F1 00 28 00 00 00 00 
   287)      4084.697 1  Rx        0183 -  8    00 08 07 03 00 0F 0E 00 
   288)      4104.622 1  Rx        0183 -  8    01 3E 00 15 00 00 00 00 
   289)      4124.675 1  Rx        0183 -  8    00 08 07 03 00 0F 0E 00 
   290)      4125.187 1  Rx        0283 -  8    01 00 00 00 00 00 00 00 
   291)      4125.657 1  Rx        0383 -  8    00 45 45 45 4D 00 00 00 
   292)      4144.600 1  Rx        0183 -  8    01 32 00 15 00 00 00 00 
   293)      4164.611 1  Rx        0183 -  8    02 F2 00 28 00 00 00 00 
   294)      4184.664 1  Rx        0183 -  8    00 08 07 03 00 0F 0E 00 
   295)      4204.589 1  Rx        0183 -  8    01 41 00 15 00 00 00 00 
   296)      4224.684 1  Rx        0183 -  8    00 08 07 03 00 0F 0E 00 
   297)      4225.154 1  Rx        0283 -  8    01 00 00 00 00 00 00 00 
   298)      4225.623 1  Rx        0383 -  8    01 3B 3C 34 01 00 00 00 
   299)      4244.609 1  Rx        0183 -  8    01 3E 00 15 00 00 00 00 
   300)      4264.577 1  Rx        0183 -  8    02 F2 00 2A 00 00 00 00 
   301)      4284.673 1  Rx        0183 -  8    00 08 07 03 00 0F 0E 00 
   302)      4304.598 1  Rx        0183 -  8    01 38 00 15 00 00 00 00 
   303)      4324.651 1  Rx        0183 -  8    00 08 07 03 00 0F 0E 00 
   304)      4344.576 1  Rx        0183 -  8    01 38 00 15 00 00 00 00 
   305)      4364.586 1  Rx        0183 -  8    02 F2 00 2A 00 00 00 00 
   306)      4384.682 1  Rx        0183 -  8    00 08 07 03 00 0F 0E 00 
   307)      4404.607 1  Rx        0183 -  8    01 3B 00 15 00 00 00 00 
   308)      4424.660 1  Rx        0183 -  8    00 08 07 03 00 0F 0E 00 
   309)      4444.585 1  Rx        0183 -  8    01 3B 00 15 00 00 00 00 
   310)      4464.595 1  Rx        0183 -  8    02 F1 00 2A 00 00 00 00 
   311)      4484.648 1  Rx        0183 -  8    00 08 07 03 00 0F 0E 00 
   312)      4504.573 1  Rx        0183 -  8    01 3E 00 16 00 00 00 00 
   313)      4524.669 1  Rx        0183 -  8    00 08 07 03 00 0F 0E 00 
   314)      4544.594 1  Rx        0183 -  8    01 3B 00 15 00 00 00 00 
   315)      4564.562 1  Rx        0183 -  8    02 F1 00 2C 00 00 00 00 
   316)      4584.657 1  Rx        0183 -  8    00 08 07 03 00 0F 0E 00 
   317)      4604.582 1  Rx        0183 -  8    01 38 00 15 00 00 00 00 
   318)      4624.636 1  Rx        0183 -  8    00 08 07 03 00 0F 0E 00 
   319)      4644.561 1  Rx        0183 -  8    01 3B 00 15 00 00 00 00 
   320)      4664.571 1  Rx        0183 -  8    02 F1 00 2A 00 00 00 00 
   321)      4684.667 1  Rx        0183 -  8    00 08 07 03 00 0F 0E 00 
   322)      4704.592 1  Rx        0183 -  8    01 38 00 15 00 00 00 00 
   323)      4724.645 1  Rx        0183 -  8    00 08 07 03 00 0F 0E 00 
   324)      4744.570 1  Rx        0183 -  8    01 41 00 15 00 00 00 00 
   325)      4764.580 1  Rx        0183 -  8    02 F2 00 2A 00 00 00 00 
   326)      4784.633 1  Rx        0183 -  8    00 08 07 03 00 0F 0E 00 
   327)      4804.558 1  Rx        0183 -  8    01 3B 00 15 00 00 00 00 
   328)      4824.654 1  Rx        0183 -  8    00 08 07 03 00 0F 0E 00 
