;$FILEVERSION=1.3
;$STARTTIME=44357.5014284673
;
;   C:\Users\saniea.akhtar\Documents\Software\25.05.21\sw20200507\_doc_\PCANExplorer\Trace2.trc
;   Start time: 10/06/2021 12:02:03.419.5
;   Generated by PCAN-Explorer v5.4.2
;-------------------------------------------------------------------------------
;   Bus  Name         Connection           Protocol  Bit rate
;   2    Connection2  ControlCAN@pcan_usb  CAN       250 kbit/s
;-------------------------------------------------------------------------------
;   Message Number
;   |         Time Offset (ms)
;   |         |       Bus
;   |         |       |    Type
;   |         |       |    |       ID (hex)
;   |         |       |    |       |    Reserved
;   |         |       |    |       |    |   Data Length Code
;   |         |       |    |       |    |   |    Data Bytes (hex) ...
;   |         |       |    |       |    |   |    |
;   |         |       |    |       |    |   |    |
;---+-- ------+------ +- --+-- ----+--- +- -+-- -+ -- -- -- -- -- -- --
     1)        13.127 2  Rx        0183 -  8    01 51 03 03 00 00 00 00 
     2)        33.138 2  Rx        0183 -  8    02 F1 00 2A 00 00 00 00 
     3)        53.191 2  Rx        0183 -  8    00 08 07 03 00 0F 0E 00 
     4)        73.120 2  Rx        0183 -  8    01 2F 03 03 00 00 00 00 
     5)        93.173 2  Rx        0183 -  8    00 08 07 03 00 0F 0E 00 
     6)        93.685 2  Rx        0283 -  8    02 01 00 00 00 00 00 00 
     7)        94.154 2  Rx        0383 -  8    00 45 45 45 4C 00 00 00 
     8)       113.140 2  Rx        0183 -  8    01 1D 03 03 00 00 00 00 
     9)       133.108 2  Rx        0183 -  8    02 F1 00 2F 00 00 00 00 
    10)       153.204 2  Rx        0183 -  8    00 08 07 03 00 0F 0E 00 
    11)       173.129 2  Rx        0183 -  8    01 4B 03 03 00 00 00 00 
    12)       193.182 2  Rx        0183 -  8    00 08 07 03 00 0F 0E 00 
    13)       193.694 2  Rx        0283 -  8    02 01 00 00 00 00 00 00 
    14)       194.163 2  Rx        0383 -  8    01 3B 3C 34 01 00 00 00 
    15)       213.107 2  Rx        0183 -  8    01 2C 03 03 00 00 00 00 
    16)       233.117 2  Rx        0183 -  8    02 F2 00 2C 00 00 00 00 
    17)       253.213 2  Rx        0183 -  8    00 08 07 03 00 0F 0E 00 
    18)       273.095 2  Rx        0183 -  8    01 0A 03 03 00 00 00 00 
    19)       293.191 2  Rx        0183 -  8    00 08 07 02 00 0F 0E 00 
    20)       293.660 2  Rx        0283 -  8    02 01 00 00 00 00 00 00 
    21)       294.172 2  Rx        0383 -  8    02 00 00 34 00 00 00 00 
    22)       313.116 2  Rx        0183 -  8    01 38 03 03 00 00 00 00 
    23)       333.126 2  Rx        0183 -  8    02 F2 00 31 00 00 00 00 
    24)       353.179 2  Rx        0183 -  8    00 08 07 03 00 0F 0E 00 
    25)       373.104 2  Rx        0183 -  8    01 48 03 03 00 00 00 00 
    26)       393.157 2  Rx        0183 -  8    00 08 07 03 00 0F 0E 00 
    27)       393.669 2  Rx        0283 -  8    02 01 00 00 00 00 00 00 
    28)       394.139 2  Rx        0383 -  8    00 45 45 45 4B 00 00 00 
    29)       413.125 2  Rx        0183 -  8    01 F7 02 03 00 00 00 00 
    30)       433.093 2  Rx        0183 -  8    02 F2 00 25 00 00 00 00 
    31)       453.188 2  Rx        0183 -  8    00 08 07 03 00 0F 0E 00 
    32)       473.113 2  Rx        0183 -  8    01 4E 03 03 00 00 00 00 
    33)       493.166 2  Rx        0183 -  8    00 08 07 03 00 0F 0E 00 
    34)       493.678 2  Rx        0283 -  8    02 01 00 00 00 00 00 00 
    35)       494.148 2  Rx        0383 -  8    01 3B 3C 34 01 00 00 00 
    36)       513.091 2  Rx        0183 -  8    01 32 03 03 00 00 00 00 
    37)       533.102 2  Rx        0183 -  8    02 F1 00 2A 00 00 00 00 
    38)       553.197 2  Rx        0183 -  8    00 08 07 03 00 0F 0E 00 
    39)       573.080 2  Rx        0183 -  8    01 42 03 03 00 00 00 00 
    40)       593.175 2  Rx        0183 -  8    00 08 07 03 00 0F 0E 00 
    41)       593.645 2  Rx        0283 -  8    02 01 00 00 00 00 00 00 
    42)       594.157 2  Rx        0383 -  8    02 00 00 34 00 00 00 00 
    43)       613.100 2  Rx        0183 -  8    01 4E 03 03 00 00 00 00 
    44)       633.068 2  Rx        0183 -  8    02 F1 00 2F 00 00 00 00 
    45)       653.164 2  Rx        0183 -  8    00 08 07 03 00 0F 0E 00 
    46)       673.089 2  Rx        0183 -  8    01 5E 03 03 00 00 00 00 
    47)       693.142 2  Rx        0183 -  8    00 08 07 03 00 0F 0E 00 
    48)       693.654 2  Rx        0283 -  8    02 01 00 00 00 00 00 00 
    49)       694.123 2  Rx        0383 -  8    00 45 45 45 4B 00 00 00 
    50)       713.067 2  Rx        0183 -  8    01 32 03 03 00 00 00 00 
    51)       733.077 2  Rx        0183 -  8    02 F2 00 2A 00 00 00 00 
    52)       753.130 2  Rx        0183 -  8    00 08 07 03 00 0F 0E 00 
    53)       773.098 2  Rx        0183 -  8    01 26 03 03 00 00 00 00 
    54)       793.151 2  Rx        0183 -  8    00 08 07 03 00 0F 0E 00 
    55)       793.620 2  Rx        0283 -  8    02 01 00 00 00 00 00 00 
    56)       794.132 2  Rx        0383 -  8    01 3B 3C 34 01 00 00 00 
    57)       813.076 2  Rx        0183 -  8    01 38 03 03 00 00 00 00 
    58)       833.086 2  Rx        0183 -  8    02 F2 00 28 00 00 00 00 
    59)       853.182 2  Rx        0183 -  8    00 08 07 03 00 0F 0E 00 
    60)       873.064 2  Rx        0183 -  8    01 32 03 03 00 00 00 00 
    61)       893.117 2  Rx        0183 -  8    00 08 07 03 00 0F 0E 00 
    62)       893.629 2  Rx        0283 -  8    02 01 00 00 00 00 00 00 
    63)       894.099 2  Rx        0383 -  8    02 00 00 34 00 00 00 00 
    64)       913.085 2  Rx        0183 -  8    01 57 03 03 00 00 00 00 
    65)       933.053 2  Rx        0183 -  8    02 F2 00 28 00 00 00 00 
    66)       953.148 2  Rx        0183 -  8    00 08 07 03 00 0F 0E 00 
    67)       973.073 2  Rx        0183 -  8    01 38 03 03 00 00 00 00 
    68)       993.127 2  Rx        0183 -  8    00 08 07 03 00 0F 0E 00 
    69)       993.639 2  Rx        0283 -  8    02 01 00 00 00 00 00 00 
    70)       994.108 2  Rx        0383 -  8    00 45 45 45 4C 00 00 00 
    71)      1013.052 2  Rx        0183 -  8    01 07 03 03 00 00 00 00 
    72)      1033.062 2  Rx        0183 -  8    02 F2 00 2C 00 00 00 00 
    73)      1053.115 2  Rx        0183 -  8    00 08 07 03 00 0F 0E 00 
    74)      1073.070 2  Rx        0183 -  8    01 3F 03 03 00 00 00 00 
    75)      1093.166 2  Rx        0183 -  8    00 08 07 03 00 0F 0E 00 
    76)      1093.635 2  Rx        0283 -  8    02 01 00 00 00 00 00 00 
    77)      1094.104 2  Rx        0383 -  8    01 3B 3C 34 01 00 00 00 
    78)      1113.091 2  Rx        0183 -  8    01 20 03 03 00 00 00 00 
    79)      1133.101 2  Rx        0183 -  8    02 F2 00 28 00 00 00 00 
    80)      1153.197 2  Rx        0183 -  8    00 08 07 03 00 0F 0E 00 
    81)      1173.079 2  Rx        0183 -  8    01 20 03 03 00 00 00 00 
    82)      1193.132 2  Rx        0183 -  8    00 08 07 03 00 0F 0E 00 
    83)      1193.644 2  Rx        0283 -  8    02 01 00 00 00 00 00 00 
    84)      1194.113 2  Rx        0383 -  8    02 00 00 34 00 00 00 00 
    85)      1213.057 2  Rx        0183 -  8    01 0A 03 03 00 00 00 00 
    86)      1233.067 2  Rx        0183 -  8    02 F2 00 28 00 00 00 00 
    87)      1253.163 2  Rx        0183 -  8    00 08 07 03 00 0F 0E 00 
    88)      1273.088 2  Rx        0183 -  8    01 07 03 03 00 00 00 00 
    89)      1293.141 2  Rx        0183 -  8    00 08 07 03 00 0F 0E 00 
    90)      1293.610 2  Rx        0283 -  8    02 01 00 00 00 00 00 00 
    91)      1294.122 2  Rx        0383 -  8    00 45 45 45 4B 00 00 00 
    92)      1313.066 2  Rx        0183 -  8    01 0A 03 03 00 00 00 00 
    93)      1333.077 2  Rx        0183 -  8    02 F2 00 2A 00 00 00 00 
    94)      1353.130 2  Rx        0183 -  8    00 08 07 03 00 0F 0E 00 
    95)      1373.055 2  Rx        0183 -  8    01 48 03 03 00 00 00 00 
    96)      1393.150 2  Rx        0183 -  8    00 08 07 03 00 0F 0E 00 
    97)      1393.620 2  Rx        0283 -  8    02 01 00 00 00 00 00 00 
    98)      1394.089 2  Rx        0383 -  8    01 3B 3C 34 01 00 00 00 
    99)      1413.075 2  Rx        0183 -  8    01 10 03 03 00 00 00 00 
   100)      1433.043 2  Rx        0183 -  8    02 F2 00 2A 00 00 00 00 
   101)      1453.139 2  Rx        0183 -  8    00 08 07 03 00 0F 0E 00 
   102)      1473.064 2  Rx        0183 -  8    01 67 03 03 00 00 00 00 
   103)      1493.117 2  Rx        0183 -  8    00 08 07 03 00 0F 0E 00 
   104)      1493.629 2  Rx        0283 -  8    02 01 00 00 00 00 00 00 
   105)      1494.098 2  Rx        0383 -  8    02 00 00 34 00 00 00 00 
   106)      1513.042 2  Rx        0183 -  8    01 42 03 03 00 00 00 00 
   107)      1533.052 2  Rx        0183 -  8    02 F1 00 2A 00 00 00 00 
   108)      1553.148 2  Rx        0183 -  8    00 08 07 03 00 0F 0E 00 
   109)      1573.073 2  Rx        0183 -  8    01 67 03 03 00 00 00 00 
   110)      1593.126 2  Rx        0183 -  8    00 08 07 03 00 0F 0E 00 
   111)      1593.595 2  Rx        0283 -  8    02 01 00 00 00 00 00 00 
   112)      1594.064 2  Rx        0383 -  8    00 45 45 45 4C 00 00 00 
   113)      1613.051 2  Rx        0183 -  8    01 20 03 03 00 00 00 00 
   114)      1633.019 2  Rx        0183 -  8    02 F1 00 2F 00 00 00 00 
   115)      1653.114 2  Rx        0183 -  8    00 08 07 03 00 0F 0E 00 
   116)      1673.039 2  Rx        0183 -  8    01 3F 03 03 00 00 00 00 
   117)      1693.092 2  Rx        0183 -  8    00 08 07 03 00 0F 0E 00 
   118)      1693.604 2  Rx        0283 -  8    02 01 00 00 00 00 00 00 
   119)      1694.074 2  Rx        0383 -  8    01 3B 3C 34 01 00 00 00 
   120)      1713.060 2  Rx        0183 -  8    01 54 03 03 00 00 00 00 
   121)      1733.028 2  Rx        0183 -  8    02 F1 00 2C 00 00 00 00 
   122)      1753.123 2  Rx        0183 -  8    00 08 07 03 00 0F 0E 00 
   123)      1773.048 2  Rx        0183 -  8    01 5E 03 03 00 00 00 00 
   124)      1793.101 2  Rx        0183 -  8    00 08 07 03 00 0F 0E 00 
   125)      1793.571 2  Rx        0283 -  8    02 01 00 00 00 00 00 00 
   126)      1794.083 2  Rx        0383 -  8    02 00 00 34 00 00 00 00 
   127)      1813.026 2  Rx        0183 -  8    01 54 03 03 00 00 00 00 
   128)      1833.037 2  Rx        0183 -  8    02 F1 00 2C 00 00 00 00 
   129)      1853.090 2  Rx        0183 -  8    00 08 07 03 00 0F 0E 00 
   130)      1873.015 2  Rx        0183 -  8    01 45 03 03 00 00 00 00 
   131)      1893.110 2  Rx        0183 -  8    00 08 07 03 00 0F 0E 00 
   132)      1893.580 2  Rx        0283 -  8    02 01 00 00 00 00 00 00 
   133)      1894.049 2  Rx        0383 -  8    00 45 45 45 4B 00 00 00 
   134)      1913.035 2  Rx        0183 -  8    01 38 03 03 00 00 00 00 
   135)      1933.003 2  Rx        0183 -  8    02 F1 00 2A 00 00 00 00 
   136)      1953.099 2  Rx        0183 -  8    00 08 07 03 00 0F 0E 00 
   137)      1973.024 2  Rx        0183 -  8    01 51 03 03 00 00 00 00 
   138)      1993.077 2  Rx        0183 -  8    00 08 07 03 00 0F 0E 00 
   139)      1993.589 2  Rx        0283 -  8    02 01 00 00 00 00 00 00 
   140)      1994.058 2  Rx        0383 -  8    01 3B 3C 34 01 00 00 00 
   141)      2013.002 2  Rx        0183 -  8    01 4B 03 03 00 00 00 00 
   142)      2033.012 2  Rx        0183 -  8    02 F2 00 2F 00 00 00 00 
   143)      2053.108 2  Rx        0183 -  8    00 08 07 03 00 0F 0E 00 
   144)      2073.063 2  Rx        0183 -  8    01 04 03 03 00 00 00 00 
   145)      2093.116 2  Rx        0183 -  8    00 08 07 03 00 0F 0E 00 
   146)      2093.585 2  Rx        0283 -  8    02 01 00 00 00 00 00 00 
   147)      2094.097 2  Rx        0383 -  8    02 00 00 34 00 00 00 00 
   148)      2113.041 2  Rx        0183 -  8    01 1D 03 04 00 00 00 00 
   149)      2133.051 2  Rx        0183 -  8    02 F1 00 28 00 00 00 00 
   150)      2153.104 2  Rx        0183 -  8    00 08 07 03 00 0F 0E 00 
   151)      2173.029 2  Rx        0183 -  8    01 10 03 03 00 00 00 00 
   152)      2193.082 2  Rx        0183 -  8    00 08 07 03 00 0F 0E 00 
   153)      2193.594 2  Rx        0283 -  8    02 01 00 00 00 00 00 00 
   154)      2194.064 2  Rx        0383 -  8    00 45 45 45 4B 00 00 00 
   155)      2213.050 2  Rx        0183 -  8    01 07 03 03 00 00 00 00 
   156)      2233.018 2  Rx        0183 -  8    02 F1 00 2A 00 00 00 00 
   157)      2253.113 2  Rx        0183 -  8    00 08 07 03 00 0F 0E 00 
   158)      2273.039 2  Rx        0183 -  8    01 4E 03 03 00 00 00 00 
   159)      2293.092 2  Rx        0183 -  8    00 08 07 03 00 0F 0E 00 
   160)      2293.604 2  Rx        0283 -  8    02 01 00 00 00 00 00 00 
   161)      2294.073 2  Rx        0383 -  8    01 3B 3C 34 01 00 00 00 
   162)      2313.017 2  Rx        0183 -  8    01 2C 03 03 00 00 00 00 
   163)      2333.027 2  Rx        0183 -  8    02 F2 00 2C 00 00 00 00 
   164)      2353.123 2  Rx        0183 -  8    00 08 07 03 00 0F 0E 00 
   165)      2373.005 2  Rx        0183 -  8    01 35 03 03 00 00 00 00 
   166)      2393.101 2  Rx        0183 -  8    00 08 07 03 00 0F 0E 00 
   167)      2393.570 2  Rx        0283 -  8    02 01 00 00 00 00 00 00 
   168)      2394.082 2  Rx        0383 -  8    02 00 00 34 00 00 00 00 
   169)      2413.026 2  Rx        0183 -  8    01 42 03 03 00 00 00 00 
   170)      2432.993 2  Rx        0183 -  8    02 F1 00 2A 00 00 00 00 
   171)      2453.089 2  Rx        0183 -  8    00 08 07 03 00 0F 0E 00 
   172)      2473.014 2  Rx        0183 -  8    01 16 03 03 00 00 00 00 
   173)      2493.067 2  Rx        0183 -  8    00 08 07 03 00 0F 0E 00 
   174)      2493.579 2  Rx        0283 -  8    02 01 00 00 00 00 00 00 
   175)      2494.048 2  Rx        0383 -  8    00 45 45 45 4B 00 00 00 
   176)      2513.035 2  Rx        0183 -  8    01 3F 03 03 00 00 00 00 
   177)      2533.002 2  Rx        0183 -  8    02 F1 00 2C 00 00 00 00 
   178)      2553.098 2  Rx        0183 -  8    00 08 07 03 00 0F 0E 00 
   179)      2573.023 2  Rx        0183 -  8    01 13 03 03 00 00 00 00 
   180)      2593.076 2  Rx        0183 -  8    00 08 07 03 00 0F 0E 00 
   181)      2593.546 2  Rx        0283 -  8    02 01 00 00 00 00 00 00 
   182)      2594.057 2  Rx        0383 -  8    01 3B 3C 34 01 00 00 00 
   183)      2613.001 2  Rx        0183 -  8    01 48 03 03 00 00 00 00 
   184)      2633.012 2  Rx        0183 -  8    02 F1 00 2A 00 00 00 00 
   185)      2653.107 2  Rx        0183 -  8    00 08 07 03 00 0F 0E 00 
   186)      2672.990 2  Rx        0183 -  8    01 3C 03 03 00 00 00 00 
   187)      2693.043 2  Rx        0183 -  8    00 08 07 03 00 0F 0E 00 
   188)      2693.555 2  Rx        0283 -  8    02 01 00 00 00 00 00 00 
   189)      2694.067 2  Rx        0383 -  8    02 00 00 34 00 00 00 00 
   190)      2713.010 2  Rx        0183 -  8    01 2F 03 03 00 00 00 00 
   191)      2732.978 2  Rx        0183 -  8    02 F1 00 28 00 00 00 00 
   192)      2753.074 2  Rx        0183 -  8    00 08 07 04 00 0F 0E 00 
   193)      2772.999 2  Rx        0183 -  8    01 35 03 03 00 00 00 00 
   194)      2793.052 2  Rx        0183 -  8    00 08 07 03 00 0F 0E 00 
   195)      2793.564 2  Rx        0283 -  8    02 01 00 00 00 00 00 00 
   196)      2794.033 2  Rx        0383 -  8    00 45 45 45 4C 00 00 00 
   197)      2812.977 2  Rx        0183 -  8    01 0A 03 03 00 00 00 00 
   198)      2832.987 2  Rx        0183 -  8    02 F1 00 2C 00 00 00 00 
   199)      2853.040 2  Rx        0183 -  8    00 08 07 03 00 0F 0E 00 
   200)      2872.965 2  Rx        0183 -  8    01 54 03 03 00 00 00 00 
   201)      2893.061 2  Rx        0183 -  8    00 08 07 03 00 0F 0E 00 
   202)      2893.530 2  Rx        0283 -  8    02 01 00 00 00 00 00 00 
   203)      2894.042 2  Rx        0383 -  8    01 3B 3C 34 01 00 00 00 
   204)      2912.986 2  Rx        0183 -  8    01 32 03 03 00 00 00 00 
   205)      2932.996 2  Rx        0183 -  8    02 F1 00 28 00 00 00 00 
   206)      2953.092 2  Rx        0183 -  8    00 08 07 03 00 0F 0E 00 
   207)      2972.974 2  Rx        0183 -  8    01 42 03 03 00 00 00 00 
   208)      2993.027 2  Rx        0183 -  8    00 08 07 03 00 0F 0E 00 
   209)      2993.539 2  Rx        0283 -  8    02 01 00 00 00 00 00 00 
   210)      2994.009 2  Rx        0383 -  8    02 00 00 34 00 00 00 00 
   211)      3012.995 2  Rx        0183 -  8    01 67 03 03 00 00 00 00 
   212)      3032.963 2  Rx        0183 -  8    02 F1 00 2A 00 00 00 00 
   213)      3053.058 2  Rx        0183 -  8    00 08 07 03 00 0F 0E 00 
   214)      3073.013 2  Rx        0183 -  8    01 19 03 03 00 00 00 00 
   215)      3093.066 2  Rx        0183 -  8    00 08 07 03 00 0F 0E 00 
   216)      3093.578 2  Rx        0283 -  8    02 01 00 00 00 00 00 00 
   217)      3094.048 2  Rx        0383 -  8    00 45 45 45 4C 00 00 00 
   218)      3112.991 2  Rx        0183 -  8    01 57 03 03 00 00 00 00 
   219)      3133.002 2  Rx        0183 -  8    02 F1 00 2A 00 00 00 00 
   220)      3153.055 2  Rx        0183 -  8    00 08 07 03 00 0F 0E 00 
   221)      3172.980 2  Rx        0183 -  8    01 32 03 03 00 00 00 00 
   222)      3193.075 2  Rx        0183 -  8    00 08 07 03 00 0F 0E 00 
   223)      3193.545 2  Rx        0283 -  8    02 01 00 00 00 00 00 00 
   224)      3194.014 2  Rx        0383 -  8    01 3B 3C 34 01 00 00 00 
   225)      3213.000 2  Rx        0183 -  8    01 51 03 03 00 00 00 00 
   226)      3232.968 2  Rx        0183 -  8    02 F1 00 2A 00 00 00 00 
   227)      3253.064 2  Rx        0183 -  8    00 08 07 03 00 0F 0E 00 
   228)      3272.989 2  Rx        0183 -  8    01 61 03 03 00 00 00 00 
   229)      3293.042 2  Rx        0183 -  8    00 08 07 03 00 0F 0E 00 
   230)      3293.554 2  Rx        0283 -  8    02 01 00 00 00 00 00 00 
   231)      3294.023 2  Rx        0383 -  8    02 00 00 34 00 00 00 00 
   232)      3312.967 2  Rx        0183 -  8    01 32 03 03 00 00 00 00 
   233)      3332.977 2  Rx        0183 -  8    02 F1 00 25 00 00 00 00 
   234)      3353.073 2  Rx        0183 -  8    00 08 07 04 00 0F 0E 00 
   235)      3372.998 2  Rx        0183 -  8    01 0D 03 03 00 00 00 00 
   236)      3393.051 2  Rx        0183 -  8    00 08 07 03 00 0F 0E 00 
   237)      3393.520 2  Rx        0283 -  8    02 01 00 00 00 00 00 00 
   238)      3393.990 2  Rx        0383 -  8    00 45 45 45 4B 00 00 00 
   239)      3412.976 2  Rx        0183 -  8    01 23 03 03 00 00 00 00 
   240)      3432.986 2  Rx        0183 -  8    02 F1 00 28 00 00 00 00 
   241)      3453.039 2  Rx        0183 -  8    00 08 07 05 00 0F 0E 00 
   242)      3472.964 2  Rx        0183 -  8    01 19 03 03 00 00 00 00 
   243)      3493.060 2  Rx        0183 -  8    00 08 07 03 00 0F 0E 00 
   244)      3493.529 2  Rx        0283 -  8    02 01 00 00 00 00 00 00 
   245)      3493.999 2  Rx        0383 -  8    01 3B 3C 34 01 00 00 00 
   246)      3512.985 2  Rx        0183 -  8    01 26 03 03 00 00 00 00 
   247)      3532.953 2  Rx        0183 -  8    02 F1 00 2A 00 00 00 00 
   248)      3553.049 2  Rx        0183 -  8    00 08 07 03 00 0F 0E 00 
   249)      3572.974 2  Rx        0183 -  8    01 42 03 03 00 00 00 00 
   250)      3593.027 2  Rx        0183 -  8    00 08 07 03 00 0F 0E 00 
   251)      3593.539 2  Rx        0283 -  8    02 01 00 00 00 00 00 00 
   252)      3594.008 2  Rx        0383 -  8    02 00 00 34 00 00 00 00 
   253)      3612.952 2  Rx        0183 -  8    01 F7 02 03 00 00 00 00 
   254)      3632.962 2  Rx        0183 -  8    02 F1 00 2C 00 00 00 00 
   255)      3653.058 2  Rx        0183 -  8    00 08 07 03 00 0F 0E 00 
   256)      3672.983 2  Rx        0183 -  8    01 FE 02 03 00 00 00 00 
   257)      3693.036 2  Rx        0183 -  8    00 08 07 03 00 0F 0E 00 
   258)      3693.505 2  Rx        0283 -  8    02 01 00 00 00 00 00 00 
   259)      3693.974 2  Rx        0383 -  8    00 45 45 45 4C 00 00 00 
   260)      3712.961 2  Rx        0183 -  8    01 4B 03 03 00 00 00 00 
   261)      3732.928 2  Rx        0183 -  8    02 F2 00 2A 00 00 00 00 
   262)      3753.024 2  Rx        0183 -  8    00 08 07 03 00 0F 0E 00 
   263)      3772.949 2  Rx        0183 -  8    01 42 03 03 00 00 00 00 
   264)      3793.002 2  Rx        0183 -  8    00 08 07 03 00 0F 0E 00 
   265)      3793.514 2  Rx        0283 -  8    02 01 00 00 00 00 00 00 
   266)      3793.983 2  Rx        0383 -  8    01 3B 3C 34 01 00 00 00 
   267)      3812.927 2  Rx        0183 -  8    01 19 03 03 00 00 00 00 
   268)      3832.937 2  Rx        0183 -  8    02 F2 00 2A 00 00 00 00 
   269)      3853.033 2  Rx        0183 -  8    00 08 07 03 00 0F 0E 00 
   270)      3872.958 2  Rx        0183 -  8    01 48 03 04 00 00 00 00 
   271)      3893.011 2  Rx        0183 -  8    00 08 07 03 00 0F 0E 00 
   272)      3893.481 2  Rx        0283 -  8    02 01 00 00 00 00 00 00 
   273)      3893.993 2  Rx        0383 -  8    02 00 00 34 00 00 00 00 
   274)      3912.936 2  Rx        0183 -  8    01 16 03 03 00 00 00 00 
   275)      3932.947 2  Rx        0183 -  8    02 F2 00 28 00 00 00 00 
   276)      3953.000 2  Rx        0183 -  8    00 08 07 03 00 0F 0E 00 
   277)      3972.925 2  Rx        0183 -  8    01 2C 03 03 00 00 00 00 
   278)      3993.020 2  Rx        0183 -  8    00 08 07 03 00 0F 0E 00 
   279)      3993.490 2  Rx        0283 -  8    02 01 00 00 00 00 00 00 
   280)      3993.959 2  Rx        0383 -  8    00 45 45 45 4C 00 00 00 
   281)      4012.945 2  Rx        0183 -  8    01 48 03 03 00 00 00 00 
   282)      4032.913 2  Rx        0183 -  8    02 F1 00 2A 00 00 00 00 
   283)      4053.009 2  Rx        0183 -  8    00 08 07 03 00 0F 0E 00 
   284)      4072.964 2  Rx        0183 -  8    01 04 03 03 00 00 00 00 
   285)      4093.017 2  Rx        0183 -  8    00 08 07 03 00 0F 0E 00 
   286)      4093.529 2  Rx        0283 -  8    02 01 00 00 00 00 00 00 
   287)      4093.998 2  Rx        0383 -  8    01 3B 3C 34 01 00 00 00 
   288)      4112.942 2  Rx        0183 -  8    01 20 03 03 00 00 00 00 
   289)      4132.952 2  Rx        0183 -  8    02 F2 00 2A 00 00 00 00 
   290)      4153.048 2  Rx        0183 -  8    00 08 07 03 00 0F 0E 00 
   291)      4172.930 2  Rx        0183 -  8    01 35 03 03 00 00 00 00 
   292)      4193.026 2  Rx        0183 -  8    00 08 07 03 00 0F 0E 00 
   293)      4193.495 2  Rx        0283 -  8    02 01 00 00 00 00 00 00 
   294)      4194.007 2  Rx        0383 -  8    02 00 00 34 00 00 00 00 
   295)      4212.951 2  Rx        0183 -  8    01 1D 03 03 00 00 00 00 
   296)      4232.919 2  Rx        0183 -  8    02 F1 00 31 00 00 00 00 
   297)      4253.014 2  Rx        0183 -  8    00 08 07 03 00 0F 0E 00 
   298)      4272.939 2  Rx        0183 -  8    01 1D 03 03 00 00 00 00 
   299)      4292.992 2  Rx        0183 -  8    00 08 07 04 00 0F 0E 00 
   300)      4293.504 2  Rx        0283 -  8    02 01 00 00 00 00 00 00 
   301)      4293.974 2  Rx        0383 -  8    00 45 45 45 4C 00 00 00 
   302)      4312.960 2  Rx        0183 -  8    01 EE 02 03 00 00 00 00 
   303)      4332.928 2  Rx        0183 -  8    02 F2 00 2C 00 00 00 00 
   304)      4353.023 2  Rx        0183 -  8    00 08 07 03 00 0F 0E 00 
   305)      4372.948 2  Rx        0183 -  8    01 29 03 03 00 00 00 00 
   306)      4393.001 2  Rx        0183 -  8    00 08 07 03 00 0F 0E 00 
   307)      4393.513 2  Rx        0283 -  8    02 01 00 00 00 00 00 00 
   308)      4393.983 2  Rx        0383 -  8    01 3B 3C 34 01 00 00 00 
   309)      4412.926 2  Rx        0183 -  8    01 51 03 03 00 00 00 00 
   310)      4432.937 2  Rx        0183 -  8    02 F1 00 28 00 00 00 00 
   311)      4453.032 2  Rx        0183 -  8    00 08 07 03 00 0F 0E 00 
   312)      4472.915 2  Rx        0183 -  8    01 26 03 03 00 00 00 00 
   313)      4493.010 2  Rx        0183 -  8    00 08 07 03 00 0F 0E 00 
   314)      4493.480 2  Rx        0283 -  8    02 01 00 00 00 00 00 00 
   315)      4493.992 2  Rx        0383 -  8    02 00 00 34 00 00 00 00 
   316)      4512.936 2  Rx        0183 -  8    01 51 03 03 00 00 00 00 
   317)      4532.903 2  Rx        0183 -  8    02 F2 00 2A 00 00 00 00 
   318)      4552.999 2  Rx        0183 -  8    00 08 07 03 00 0F 0E 00 
   319)      4572.924 2  Rx        0183 -  8    01 48 03 03 00 00 00 00 
   320)      4592.977 2  Rx        0183 -  8    00 08 07 03 00 0F 0E 00 
   321)      4593.489 2  Rx        0283 -  8    02 01 00 00 00 00 00 00 
   322)      4593.958 2  Rx        0383 -  8    00 45 45 45 4B 00 00 00 
   323)      4612.902 2  Rx        0183 -  8    01 10 03 03 00 00 00 00 
   324)      4632.912 2  Rx        0183 -  8    02 F2 00 2C 00 00 00 00 
   325)      4653.008 2  Rx        0183 -  8    00 08 07 03 00 0F 0E 00 
   326)      4672.933 2  Rx        0183 -  8    01 4B 03 03 00 00 00 00 
   327)      4692.986 2  Rx        0183 -  8    00 08 07 03 00 0F 0E 00 
   328)      4693.455 2  Rx        0283 -  8    02 01 00 00 00 00 00 00 
