;$FILEVERSION=1.3
;$STARTTIME=44417.5806641056
;
;   C:\Users\saniea.akhtar\Documents\Software\25.05.21\sw20200507\_doc_\PCANExplorer\Trace_2 - 09.08.21.trc
;   Start time: 09/08/2021 13:56:09.378.7
;   Generated by PCAN-Explorer v5.4.2
;-------------------------------------------------------------------------------
;   Bus  Name         Connection           Protocol  Bit rate
;   1    Connection1  ControlCAN@pcan_usb  CAN       250 kbit/s
;-------------------------------------------------------------------------------
;   Message Number
;   |         Time Offset (ms)
;   |         |       Bus
;   |         |       |    Type
;   |         |       |    |       ID (hex)
;   |         |       |    |       |    Reserved
;   |         |       |    |       |    |   Data Length Code
;   |         |       |    |       |    |   |    Data Bytes (hex) ...
;   |         |       |    |       |    |   |    |
;   |         |       |    |       |    |   |    |
;---+-- ------+------ +- --+-- ----+--- +- -+-- -+ -- -- -- -- -- -- --
     1)        13.001 1  Rx        0183 -  8    01 AA 00 68 01 00 00 00 
     2)        33.054 1  Rx        0183 -  8    00 08 07 0A 00 0F 0E 00 
     3)        53.022 1  Rx        0183 -  8    01 82 00 6B 01 00 00 00 
     4)        72.989 1  Rx        0183 -  8    02 F1 00 2C 00 00 00 00 
     5)        93.085 1  Rx        0183 -  8    00 08 07 54 00 0F 0E 00 
     6)       113.010 1  Rx        0183 -  8    01 32 00 69 01 00 00 00 
     7)       133.063 1  Rx        0183 -  8    00 08 07 1E 00 0F 0E 00 
     8)       152.988 1  Rx        0183 -  8    01 95 00 6A 01 00 00 00 
     9)       172.998 1  Rx        0183 -  8    02 F1 00 2C 00 00 00 00 
    10)       193.094 1  Rx        0183 -  8    00 08 07 0E 00 0F 0E 00 
    11)       213.019 1  Rx        0183 -  8    01 2E 00 6F 01 00 00 00 
    12)       233.072 1  Rx        0183 -  8    00 08 07 0C 00 0F 0E 00 
    13)       252.997 1  Rx        0183 -  8    01 2E 00 68 01 00 00 00 
    14)       273.007 1  Rx        0183 -  8    02 F1 00 2A 00 00 00 00 
    15)       293.103 1  Rx        0183 -  8    00 08 07 28 00 0F 0E 00 
    16)       312.986 1  Rx        0183 -  8    01 2E 00 6E 01 00 00 00 
    17)       333.081 1  Rx        0183 -  8    00 08 07 09 00 0F 0E 00 
    18)       353.006 1  Rx        0183 -  8    01 2E 00 6D 01 00 00 00 
    19)       372.974 1  Rx        0183 -  8    02 F1 00 2C 00 00 00 00 
    20)       393.070 1  Rx        0183 -  8    00 08 07 5A 00 0F 0E 00 
    21)       412.995 1  Rx        0183 -  8    01 2E 00 6F 01 00 00 00 
    22)       433.048 1  Rx        0183 -  8    00 08 07 14 00 0F 0E 00 
    23)       452.973 1  Rx        0183 -  8    01 38 00 6E 01 00 00 00 
    24)       472.983 1  Rx        0183 -  8    02 F1 00 2C 00 00 00 00 
    25)       493.079 1  Rx        0183 -  8    00 08 07 0B 00 0F 0E 00 
    26)       512.961 1  Rx        0183 -  8    01 A7 00 6E 01 00 00 00 
    27)       533.087 1  Rx        0183 -  8    00 08 07 0E 00 0F 0E 00 
    28)       553.012 1  Rx        0183 -  8    01 35 00 6E 01 00 00 00 
    29)       573.022 1  Rx        0183 -  8    02 F1 00 2F 00 00 00 00 
    30)       593.075 1  Rx        0183 -  8    00 08 07 04 00 0F 0E 00 
    31)       613.000 1  Rx        0183 -  8    01 AA 00 6A 01 00 00 00 
    32)       633.053 1  Rx        0183 -  8    00 08 07 0D 00 0F 0E 00 
    33)       653.021 1  Rx        0183 -  8    01 82 00 6E 01 00 00 00 
    34)       672.989 1  Rx        0183 -  8    02 F2 00 2C 00 00 00 00 
    35)       693.084 1  Rx        0183 -  8    00 08 07 62 00 0F 0E 00 
    36)       713.009 1  Rx        0183 -  8    01 79 00 6A 01 00 00 00 
    37)       733.062 1  Rx        0183 -  8    00 08 07 14 00 0F 0E 00 
    38)       752.987 1  Rx        0183 -  8    01 82 00 6B 01 00 00 00 
    39)       772.998 1  Rx        0183 -  8    02 F1 00 2A 00 00 00 00 
    40)       793.093 1  Rx        0183 -  8    00 08 07 0F 00 0F 0E 00 
    41)       813.018 1  Rx        0183 -  8    01 38 00 6A 01 00 00 00 
    42)       833.071 1  Rx        0183 -  8    00 08 07 A9 00 0F 0E 00 
    43)       852.996 1  Rx        0183 -  8    01 8F 00 6B 01 00 00 00 
    44)       873.007 1  Rx        0183 -  8    02 F1 00 2A 00 00 00 00 
    45)       893.060 1  Rx        0183 -  8    00 08 07 04 00 0F 0E 00 
    46)       912.985 1  Rx        0183 -  8    01 2E 00 6E 01 00 00 00 
    47)       933.038 1  Rx        0183 -  8    00 08 07 09 00 0F 0E 00 
    48)       953.006 1  Rx        0183 -  8    01 3B 00 6B 01 00 00 00 
    49)       972.973 1  Rx        0183 -  8    02 F1 00 28 00 00 00 00 
    50)       993.069 1  Rx        0183 -  8    00 08 07 0A 00 0F 0E 00 
    51)      1012.994 1  Rx        0183 -  8    01 3B 00 6E 01 00 00 00 
    52)      1033.047 1  Rx        0183 -  8    00 08 07 11 00 0F 0E 00 
    53)      1052.972 1  Rx        0183 -  8    01 38 00 6E 01 00 00 00 
    54)      1072.982 1  Rx        0183 -  8    02 F1 00 28 00 00 00 00 
    55)      1093.078 1  Rx        0183 -  8    00 08 07 0A 00 0F 0E 00 
    56)      1112.960 1  Rx        0183 -  8    01 35 00 6E 01 00 00 00 
    57)      1133.056 1  Rx        0183 -  8    00 08 07 95 00 0F 0E 00 
    58)      1152.981 1  Rx        0183 -  8    01 41 00 6E 01 00 00 00 
    59)      1172.991 1  Rx        0183 -  8    02 F1 00 21 00 00 00 00 
    60)      1193.044 1  Rx        0183 -  8    00 08 07 05 00 0F 0E 00 
    61)      1212.969 1  Rx        0183 -  8    01 88 00 6E 01 00 00 00 
    62)      1233.022 1  Rx        0183 -  8    00 08 07 11 00 0F 0E 00 
    63)      1252.990 1  Rx        0183 -  8    01 2E 00 6E 01 00 00 00 
    64)      1272.958 1  Rx        0183 -  8    02 F2 00 23 00 00 00 00 
    65)      1293.054 1  Rx        0183 -  8    00 08 07 09 00 0F 0E 00 
    66)      1312.979 1  Rx        0183 -  8    01 A7 00 69 01 00 00 00 
    67)      1333.032 1  Rx        0183 -  8    00 08 07 0F 00 0F 0E 00 
    68)      1352.957 1  Rx        0183 -  8    01 A1 00 6E 01 00 00 00 
    69)      1372.967 1  Rx        0183 -  8    02 F2 00 31 00 00 00 00 
    70)      1393.063 1  Rx        0183 -  8    00 08 07 42 00 0F 0E 00 
    71)      1412.988 1  Rx        0183 -  8    01 92 00 6B 01 00 00 00 
    72)      1433.041 1  Rx        0183 -  8    00 08 07 89 00 0F 0E 00 
    73)      1452.966 1  Rx        0183 -  8    01 B4 00 6A 01 00 00 00 
    74)      1472.976 1  Rx        0183 -  8    02 F1 00 28 00 00 00 00 
    75)      1493.029 1  Rx        0183 -  8    00 08 07 05 00 0F 0E 00 
    76)      1512.954 1  Rx        0183 -  8    01 32 00 6A 01 00 00 00 
    77)      1533.039 1  Rx        0183 -  8    00 08 07 12 00 0F 0E 00 
    78)      1552.921 1  Rx        0183 -  8    01 A7 00 68 01 00 00 00 
    79)      1572.931 1  Rx        0183 -  8    02 F2 00 2A 00 00 00 00 
    80)      1593.027 1  Rx        0183 -  8    00 08 07 09 00 0F 0E 00 
    81)      1612.952 1  Rx        0183 -  8    01 41 00 6A 01 00 00 00 
    82)      1633.005 1  Rx        0183 -  8    00 08 07 0D 00 0F 0E 00 
    83)      1652.930 1  Rx        0183 -  8    01 35 00 6A 01 00 00 00 
    84)      1672.941 1  Rx        0183 -  8    02 F2 00 2C 00 00 00 00 
    85)      1693.036 1  Rx        0183 -  8    00 08 07 42 00 0F 0E 00 
    86)      1712.919 1  Rx        0183 -  8    01 3B 00 6E 01 00 00 00 
    87)      1733.014 1  Rx        0183 -  8    00 08 07 B0 00 0F 0E 00 
    88)      1752.939 1  Rx        0183 -  8    01 35 00 69 01 00 00 00 
    89)      1772.950 1  Rx        0183 -  8    02 F2 00 28 00 00 00 00 
    90)      1793.003 1  Rx        0183 -  8    00 08 07 4A 00 0F 0E 00 
    91)      1812.928 1  Rx        0183 -  8    01 3B 00 6E 01 00 00 00 
    92)      1832.981 1  Rx        0183 -  8    00 08 07 13 00 0F 0E 00 
    93)      1852.948 1  Rx        0183 -  8    01 3E 00 6E 01 00 00 00 
    94)      1872.916 1  Rx        0183 -  8    02 F2 00 28 00 00 00 00 
    95)      1893.012 1  Rx        0183 -  8    00 08 07 08 00 0F 0E 00 
    96)      1912.937 1  Rx        0183 -  8    01 92 00 6E 01 00 00 00 
    97)      1932.990 1  Rx        0183 -  8    00 08 07 0F 00 0F 0E 00 
    98)      1952.915 1  Rx        0183 -  8    01 3B 00 6E 01 00 00 00 
    99)      1972.925 1  Rx        0183 -  8    02 F2 00 2C 00 00 00 00 
   100)      1993.021 1  Rx        0183 -  8    00 08 07 3B 00 0F 0E 00 
   101)      2012.946 1  Rx        0183 -  8    01 B4 00 6B 01 00 00 00 
   102)      2032.999 1  Rx        0183 -  8    00 08 07 09 00 0F 0E 00 
   103)      2052.924 1  Rx        0183 -  8    01 9E 00 6E 01 00 00 00 
   104)      2072.934 1  Rx        0183 -  8    02 F1 00 2A 00 00 00 00 
   105)      2092.987 1  Rx        0183 -  8    00 08 07 4A 00 0F 0E 00 
   106)      2112.912 1  Rx        0183 -  8    01 85 00 6A 01 00 00 00 
   107)      2132.965 1  Rx        0183 -  8    00 08 07 15 00 0F 0E 00 
   108)      2152.933 1  Rx        0183 -  8    01 AA 00 69 01 00 00 00 
   109)      2172.901 1  Rx        0183 -  8    02 F2 00 2A 00 00 00 00 
   110)      2192.996 1  Rx        0183 -  8    00 08 07 0E 00 0F 0E 00 
   111)      2212.921 1  Rx        0183 -  8    01 95 00 6A 01 00 00 00 
   112)      2232.975 1  Rx        0183 -  8    00 08 07 0D 00 0F 0E 00 
   113)      2252.900 1  Rx        0183 -  8    01 A1 00 69 01 00 00 00 
   114)      2272.910 1  Rx        0183 -  8    02 F2 00 2F 00 00 00 00 
   115)      2293.006 1  Rx        0183 -  8    00 08 07 3B 00 0F 0E 00 
   116)      2312.931 1  Rx        0183 -  8    01 38 00 6A 01 00 00 00 
   117)      2332.984 1  Rx        0183 -  8    00 08 07 0E 00 0F 0E 00 
   118)      2352.909 1  Rx        0183 -  8    01 B1 00 6B 01 00 00 00 
   119)      2372.919 1  Rx        0183 -  8    02 F2 00 2A 00 00 00 00 
   120)      2392.972 1  Rx        0183 -  8    00 08 07 49 00 0F 0E 00 
   121)      2412.897 1  Rx        0183 -  8    01 38 00 6E 01 00 00 00 
   122)      2432.950 1  Rx        0183 -  8    00 08 07 1D 00 0F 0E 00 
   123)      2452.918 1  Rx        0183 -  8    01 3B 00 6B 01 00 00 00 
   124)      2472.885 1  Rx        0183 -  8    02 F1 00 2A 00 00 00 00 
   125)      2492.981 1  Rx        0183 -  8    00 08 07 10 00 0F 0E 00 
   126)      2512.906 1  Rx        0183 -  8    01 32 00 6E 01 00 00 00 
   127)      2532.989 1  Rx        0183 -  8    00 08 07 0E 00 0F 0E 00 
   128)      2552.914 1  Rx        0183 -  8    01 32 00 6F 01 00 00 00 
   129)      2572.925 1  Rx        0183 -  8    02 F1 00 28 00 00 00 00 
   130)      2593.020 1  Rx        0183 -  8    00 08 07 08 00 0F 0E 00 
   131)      2612.903 1  Rx        0183 -  8    01 9B 00 6E 01 00 00 00 
   132)      2632.998 1  Rx        0183 -  8    00 08 07 0C 00 0F 0E 00 
   133)      2652.923 1  Rx        0183 -  8    01 35 00 6E 01 00 00 00 
   134)      2672.934 1  Rx        0183 -  8    02 F1 00 2C 00 00 00 00 
   135)      2692.987 1  Rx        0183 -  8    00 08 07 4B 00 0F 0E 00 
   136)      2712.912 1  Rx        0183 -  8    01 AA 00 6E 01 00 00 00 
   137)      2732.965 1  Rx        0183 -  8    00 08 07 1F 00 0F 0E 00 
   138)      2752.932 1  Rx        0183 -  8    01 76 00 6F 01 00 00 00 
   139)      2772.900 1  Rx        0183 -  8    02 F1 00 2C 00 00 00 00 
   140)      2792.996 1  Rx        0183 -  8    00 08 07 0F 00 0F 0E 00 
   141)      2812.921 1  Rx        0183 -  8    01 95 00 6A 01 00 00 00 
   142)      2832.974 1  Rx        0183 -  8    00 08 07 5B 00 0F 0E 00 
   143)      2852.899 1  Rx        0183 -  8    01 70 00 6E 01 00 00 00 
   144)      2872.909 1  Rx        0183 -  8    02 F2 00 2A 00 00 00 00 
   145)      2893.005 1  Rx        0183 -  8    00 08 07 07 00 0F 0E 00 
   146)      2912.887 1  Rx        0183 -  8    01 A4 00 6B 01 00 00 00 
   147)      2932.983 1  Rx        0183 -  8    00 08 07 0E 00 0F 0E 00 
   148)      2952.908 1  Rx        0183 -  8    01 92 00 6B 01 00 00 00 
   149)      2972.918 1  Rx        0183 -  8    02 F2 00 2F 00 00 00 00 
   150)      2992.971 1  Rx        0183 -  8    00 08 07 09 00 0F 0E 00 
   151)      3012.896 1  Rx        0183 -  8    01 32 00 6A 01 00 00 00 
   152)      3032.949 1  Rx        0183 -  8    00 08 07 19 00 0F 0E 00 
   153)      3052.917 1  Rx        0183 -  8    01 88 00 6A 01 00 00 00 
   154)      3072.885 1  Rx        0183 -  8    02 F2 00 2A 00 00 00 00 
   155)      3092.980 1  Rx        0183 -  8    00 08 07 10 00 0F 0E 00 
   156)      3112.905 1  Rx        0183 -  8    01 38 00 70 01 00 00 00 
   157)      3132.958 1  Rx        0183 -  8    00 08 07 78 00 0F 0E 00 
   158)      3152.883 1  Rx        0183 -  8    01 35 00 6B 01 00 00 00 
   159)      3172.894 1  Rx        0183 -  8    02 F1 00 28 00 00 00 00 
   160)      3192.990 1  Rx        0183 -  8    00 08 07 08 00 0F 0E 00 
   161)      3212.872 1  Rx        0183 -  8    01 38 00 6F 01 00 00 00 
   162)      3232.968 1  Rx        0183 -  8    00 08 07 0C 00 0F 0E 00 
   163)      3252.893 1  Rx        0183 -  8    01 2E 00 70 01 00 00 00 
   164)      3272.903 1  Rx        0183 -  8    02 F1 00 28 00 00 00 00 
   165)      3292.956 1  Rx        0183 -  8    00 08 07 0A 00 0F 0E 00 
   166)      3312.881 1  Rx        0183 -  8    01 2B 00 6F 01 00 00 00 
   167)      3332.977 1  Rx        0183 -  8    00 08 07 18 00 0F 0E 00 
   168)      3352.902 1  Rx        0183 -  8    01 38 00 6F 01 00 00 00 
   169)      3372.869 1  Rx        0183 -  8    02 F1 00 28 00 00 00 00 
   170)      3392.965 1  Rx        0183 -  8    00 08 07 54 00 0F 0E 00 
   171)      3412.890 1  Rx        0183 -  8    01 AE 00 6F 01 00 00 00 
   172)      3432.943 1  Rx        0183 -  8    00 08 07 78 00 0F 0E 00 
   173)      3452.868 1  Rx        0183 -  8    01 32 00 6F 01 00 00 00 
   174)      3472.878 1  Rx        0183 -  8    02 F1 00 2A 00 00 00 00 
   175)      3492.974 1  Rx        0183 -  8    00 08 07 05 00 0F 0E 00 
   176)      3512.899 1  Rx        0183 -  8    01 7C 00 6C 01 00 00 00 
   177)      3532.938 1  Rx        0183 -  8    00 08 07 0F 00 0F 0E 00 
   178)      3552.863 1  Rx        0183 -  8    01 88 00 6F 01 00 00 00 
   179)      3572.874 1  Rx        0183 -  8    02 F1 00 2A 00 00 00 00 
   180)      3592.927 1  Rx        0183 -  8    00 08 07 09 00 0F 0E 00 
   181)      3612.852 1  Rx        0183 -  8    01 AA 00 6B 01 00 00 00 
   182)      3632.947 1  Rx        0183 -  8    00 08 07 05 00 0F 0E 00 
   183)      3652.872 1  Rx        0183 -  8    01 70 00 6A 01 00 00 00 
   184)      3672.840 1  Rx        0183 -  8    02 F1 00 2C 00 00 00 00 
   185)      3692.936 1  Rx        0183 -  8    00 08 07 51 00 0F 0E 00 
   186)      3712.861 1  Rx        0183 -  8    01 2E 00 6A 01 00 00 00 
   187)      3732.914 1  Rx        0183 -  8    00 08 07 5B 00 0F 0E 00 
   188)      3752.881 1  Rx        0183 -  8    01 7C 00 6B 01 00 00 00 
   189)      3772.849 1  Rx        0183 -  8    02 F1 00 28 00 00 00 00 
   190)      3792.945 1  Rx        0183 -  8    00 08 07 36 00 0F 0E 00 
   191)      3812.870 1  Rx        0183 -  8    01 2B 00 6F 01 00 00 00 
   192)      3832.923 1  Rx        0183 -  8    00 08 07 10 00 0F 0E 00 
   193)      3852.848 1  Rx        0183 -  8    01 3B 00 6A 01 00 00 00 
   194)      3872.858 1  Rx        0183 -  8    02 F1 00 28 00 00 00 00 
   195)      3892.911 1  Rx        0183 -  8    00 08 07 08 00 0F 0E 00 
   196)      3912.836 1  Rx        0183 -  8    01 2E 00 70 01 00 00 00 
   197)      3932.932 1  Rx        0183 -  8    00 08 07 05 00 0F 0E 00 
   198)      3952.857 1  Rx        0183 -  8    01 3E 00 6C 01 00 00 00 
   199)      3972.825 1  Rx        0183 -  8    02 F1 00 2C 00 00 00 00 
   200)      3992.920 1  Rx        0183 -  8    00 08 07 50 00 0F 0E 00 
   201)      4012.845 1  Rx        0183 -  8    01 3E 00 70 01 00 00 00 
   202)      4032.898 1  Rx        0183 -  8    00 08 07 0C 00 0F 0E 00 
   203)      4052.823 1  Rx        0183 -  8    01 2E 00 70 01 00 00 00 
   204)      4072.834 1  Rx        0183 -  8    02 F1 00 2A 00 00 00 00 
   205)      4092.929 1  Rx        0183 -  8    00 08 07 38 00 0F 0E 00 
   206)      4112.854 1  Rx        0183 -  8    01 AE 00 70 01 00 00 00 
   207)      4132.907 1  Rx        0183 -  8    00 08 07 0E 00 0F 0E 00 
   208)      4152.833 1  Rx        0183 -  8    01 28 00 70 01 00 00 00 
   209)      4172.843 1  Rx        0183 -  8    02 F1 00 2A 00 00 00 00 
   210)      4192.896 1  Rx        0183 -  8    00 08 07 0D 00 0F 0E 00 
   211)      4212.821 1  Rx        0183 -  8    01 B4 00 6C 01 00 00 00 
   212)      4232.917 1  Rx        0183 -  8    00 08 07 07 00 0F 0E 00 
   213)      4252.842 1  Rx        0183 -  8    01 A7 00 70 01 00 00 00 
   214)      4272.809 1  Rx        0183 -  8    02 F1 00 2A 00 00 00 00 
   215)      4292.905 1  Rx        0183 -  8    00 08 07 4F 00 0F 0E 00 
   216)      4312.830 1  Rx        0183 -  8    01 8F 00 6A 01 00 00 00 
   217)      4332.883 1  Rx        0183 -  8    00 08 07 08 00 0F 0E 00 
   218)      4352.808 1  Rx        0183 -  8    01 98 00 6A 01 00 00 00 
   219)      4372.818 1  Rx        0183 -  8    02 F1 00 2A 00 00 00 00 
   220)      4392.914 1  Rx        0183 -  8    00 08 07 3A 00 0F 0E 00 
   221)      4412.796 1  Rx        0183 -  8    01 9B 00 6B 01 00 00 00 
   222)      4432.892 1  Rx        0183 -  8    00 08 07 2F 00 0F 0E 00 
   223)      4452.817 1  Rx        0183 -  8    01 92 00 6A 01 00 00 00 
   224)      4472.828 1  Rx        0183 -  8    02 F1 00 2A 00 00 00 00 
   225)      4492.881 1  Rx        0183 -  8    00 08 07 0F 00 0F 0E 00 
   226)      4512.806 1  Rx        0183 -  8    01 41 00 6B 01 00 00 00 
   227)      4532.892 1  Rx        0183 -  8    00 08 07 09 00 0F 0E 00 
   228)      4552.817 1  Rx        0183 -  8    01 88 00 6C 01 00 00 00 
   229)      4572.785 1  Rx        0183 -  8    02 F1 00 2A 00 00 00 00 
   230)      4592.881 1  Rx        0183 -  8    00 08 07 08 00 0F 0E 00 
   231)      4612.806 1  Rx        0183 -  8    01 32 00 6F 01 00 00 00 
   232)      4632.859 1  Rx        0183 -  8    00 08 07 0A 00 0F 0E 00 
   233)      4652.784 1  Rx        0183 -  8    01 3B 00 6B 01 00 00 00 
   234)      4672.794 1  Rx        0183 -  8    02 F1 00 2A 00 00 00 00 
   235)      4692.890 1  Rx        0183 -  8    00 08 07 39 00 0F 0E 00 
   236)      4712.815 1  Rx        0183 -  8    01 35 00 6F 01 00 00 00 
   237)      4732.868 1  Rx        0183 -  8    00 08 07 2C 00 0F 0E 00 
   238)      4752.793 1  Rx        0183 -  8    01 2E 00 6F 01 00 00 00 
   239)      4772.803 1  Rx        0183 -  8    02 F2 00 2C 00 00 00 00 
   240)      4792.856 1  Rx        0183 -  8    00 08 07 10 00 0F 0E 00 
   241)      4812.781 1  Rx        0183 -  8    01 A1 00 70 01 00 00 00 
   242)      4832.834 1  Rx        0183 -  8    00 08 07 67 00 0F 0E 00 
   243)      4852.759 1  Rx        0183 -  8    01 3B 00 6E 01 00 00 00 
   244)      4872.770 1  Rx        0183 -  8    02 F1 00 2C 00 00 00 00 
   245)      4892.865 1  Rx        0183 -  8    00 08 07 03 00 0F 0E 00 
   246)      4912.790 1  Rx        0183 -  8    01 9B 00 6A 01 00 00 00 
   247)      4932.843 1  Rx        0183 -  8    00 08 07 0C 00 0F 0E 00 
   248)      4952.768 1  Rx        0183 -  8    01 A7 00 6F 01 00 00 00 
   249)      4972.779 1  Rx        0183 -  8    02 F2 00 2F 00 00 00 00 
   250)      4992.874 1  Rx        0183 -  8    00 08 07 0A 00 0F 0E 00 
   251)      5012.799 1  Rx        0183 -  8    01 9E 00 6C 01 00 00 00 
   252)      5032.852 1  Rx        0183 -  8    00 08 07 29 00 0F 0E 00 
   253)      5052.777 1  Rx        0183 -  8    01 8F 00 6A 01 00 00 00 
   254)      5072.788 1  Rx        0183 -  8    02 F2 00 25 00 00 00 00 
   255)      5092.841 1  Rx        0183 -  8    00 08 07 10 00 0F 0E 00 
   256)      5112.766 1  Rx        0183 -  8    01 8F 00 6A 01 00 00 00 
   257)      5132.819 1  Rx        0183 -  8    00 08 07 62 00 0F 0E 00 
   258)      5152.787 1  Rx        0183 -  8    01 A1 00 6B 01 00 00 00 
   259)      5172.754 1  Rx        0183 -  8    02 F1 00 23 00 00 00 00 
   260)      5192.850 1  Rx        0183 -  8    00 08 07 03 00 0F 0E 00 
   261)      5212.775 1  Rx        0183 -  8    01 28 00 69 01 00 00 00 
   262)      5232.828 1  Rx        0183 -  8    00 08 07 0E 00 0F 0E 00 
   263)      5252.753 1  Rx        0183 -  8    01 82 00 6B 01 00 00 00 
   264)      5272.763 1  Rx        0183 -  8    02 F1 00 2C 00 00 00 00 
   265)      5292.859 1  Rx        0183 -  8    00 08 07 05 00 0F 0E 00 
   266)      5312.741 1  Rx        0183 -  8    01 38 00 6F 01 00 00 00 
   267)      5332.837 1  Rx        0183 -  8    00 08 07 29 00 0F 0E 00 
   268)      5352.762 1  Rx        0183 -  8    01 38 00 6B 01 00 00 00 
   269)      5372.772 1  Rx        0183 -  8    02 F1 00 2A 00 00 00 00 
   270)      5392.825 1  Rx        0183 -  8    00 08 07 70 00 0F 0E 00 
   271)      5412.750 1  Rx        0183 -  8    01 41 00 6E 01 00 00 00 
   272)      5432.846 1  Rx        0183 -  8    00 08 07 66 00 0F 0E 00 
   273)      5452.771 1  Rx        0183 -  8    01 35 00 6F 01 00 00 00 
   274)      5472.739 1  Rx        0183 -  8    02 F2 00 2A 00 00 00 00 
   275)      5492.835 1  Rx        0183 -  8    00 08 07 04 00 0F 0E 00 
   276)      5512.760 1  Rx        0183 -  8    01 8F 00 70 01 00 00 00 
   277)      5532.843 1  Rx        0183 -  8    00 08 07 0D 00 0F 0E 00 
   278)      5552.768 1  Rx        0183 -  8    01 3B 00 70 01 00 00 00 
   279)      5572.778 1  Rx        0183 -  8    02 F2 00 28 00 00 00 00 
   280)      5592.874 1  Rx        0183 -  8    00 08 07 06 00 0F 0E 00 
   281)      5612.756 1  Rx        0183 -  8    01 73 00 6F 01 00 00 00 
   282)      5632.852 1  Rx        0183 -  8    00 08 07 07 00 0F 0E 00 
   283)      5652.777 1  Rx        0183 -  8    01 38 00 6F 01 00 00 00 
   284)      5672.787 1  Rx        0183 -  8    02 F1 00 2A 00 00 00 00 
   285)      5692.840 1  Rx        0183 -  8    00 08 07 03 01 0F 0E 00 
   286)      5712.765 1  Rx        0183 -  8    01 7C 00 6A 01 00 00 00 
   287)      5732.861 1  Rx        0183 -  8    00 08 07 75 00 0F 0E 00 
   288)      5752.786 1  Rx        0183 -  8    01 9E 00 70 01 00 00 00 
   289)      5772.754 1  Rx        0183 -  8    02 F2 00 2A 00 00 00 00 
   290)      5792.849 1  Rx        0183 -  8    00 08 07 27 00 0F 0E 00 
   291)      5812.774 1  Rx        0183 -  8    01 AE 00 6C 01 00 00 00 
   292)      5832.827 1  Rx        0183 -  8    00 08 07 0F 00 0F 0E 00 
   293)      5852.752 1  Rx        0183 -  8    01 85 00 6A 01 00 00 00 
   294)      5872.763 1  Rx        0183 -  8    02 F2 00 2C 00 00 00 00 
   295)      5892.858 1  Rx        0183 -  8    00 08 07 04 00 0F 0E 00 
   296)      5912.741 1  Rx        0183 -  8    01 3B 00 6C 01 00 00 00 
   297)      5932.836 1  Rx        0183 -  8    00 08 07 08 00 0F 0E 00 
   298)      5952.761 1  Rx        0183 -  8    01 A1 00 6B 01 00 00 00 
   299)      5972.772 1  Rx        0183 -  8    02 F2 00 2C 00 00 00 00 
   300)      5992.825 1  Rx        0183 -  8    00 08 07 C5 00 0F 0E 00 
   301)      6012.750 1  Rx        0183 -  8    01 2B 00 6F 01 00 00 00 
   302)      6032.803 1  Rx        0183 -  8    00 08 07 0C 00 0F 0E 00 
   303)      6052.770 1  Rx        0183 -  8    01 3B 00 6B 01 00 00 00 
   304)      6072.738 1  Rx        0183 -  8    02 F2 00 28 00 00 00 00 
   305)      6092.834 1  Rx        0183 -  8    00 08 07 24 00 0F 0E 00 
   306)      6112.759 1  Rx        0183 -  8    01 32 00 70 01 00 00 00 
   307)      6132.812 1  Rx        0183 -  8    00 08 07 0D 00 0F 0E 00 
   308)      6152.780 1  Rx        0183 -  8    01 3E 00 6F 01 00 00 00 
   309)      6172.747 1  Rx        0183 -  8    02 F2 00 2A 00 00 00 00 
   310)      6192.843 1  Rx        0183 -  8    00 08 07 10 00 0F 0E 00 
   311)      6212.768 1  Rx        0183 -  8    01 35 00 6F 01 00 00 00 
   312)      6232.821 1  Rx        0183 -  8    00 08 07 09 00 0F 0E 00 
   313)      6252.746 1  Rx        0183 -  8    01 3E 00 6F 01 00 00 00 
   314)      6272.756 1  Rx        0183 -  8    02 F1 00 2C 00 00 00 00 
   315)      6292.852 1  Rx        0183 -  8    00 08 07 68 00 0F 0E 00 
   316)      6312.734 1  Rx        0183 -  8    01 73 00 6F 01 00 00 00 
   317)      6332.787 1  Rx        0183 -  8    00 08 07 0D 00 0F 0E 00 
   318)      6352.755 1  Rx        0183 -  8    01 38 00 70 01 00 00 00 
   319)      6372.723 1  Rx        0183 -  8    02 F1 00 2A 00 00 00 00 
   320)      6392.819 1  Rx        0183 -  8    00 08 07 29 00 0F 0E 00 
   321)      6412.744 1  Rx        0183 -  8    01 98 00 6A 01 00 00 00 
   322)      6432.797 1  Rx        0183 -  8    00 08 07 3F 00 0F 0E 00 
   323)      6452.722 1  Rx        0183 -  8    01 73 00 6F 01 00 00 00 
   324)      6472.732 1  Rx        0183 -  8    02 F2 00 2A 00 00 00 00 
   325)      6492.828 1  Rx        0183 -  8    00 08 07 13 00 0F 0E 00 
   326)      6512.710 1  Rx        0183 -  8    01 7F 00 6B 01 00 00 00 
   327)      6532.818 1  Rx        0183 -  8    00 08 07 06 00 0F 0E 00 
   328)      6552.743 1  Rx        0183 -  8    01 A4 00 6A 01 00 00 00 
   329)      6572.753 1  Rx        0183 -  8    02 F2 00 2A 00 00 00 00 
   330)      6592.806 1  Rx        0183 -  8    00 08 07 09 00 0F 0E 00 
   331)      6612.731 1  Rx        0183 -  8    01 38 00 6B 01 00 00 00 
   332)      6632.827 1  Rx        0183 -  8    00 08 07 0E 00 0F 0E 00 
   333)      6652.752 1  Rx        0183 -  8    01 AE 00 6B 01 00 00 00 
   334)      6672.719 1  Rx        0183 -  8    02 F2 00 2A 00 00 00 00 
   335)      6692.815 1  Rx        0183 -  8    00 08 07 2A 00 0F 0E 00 
   336)      6712.740 1  Rx        0183 -  8    01 35 00 6A 01 00 00 00 
   337)      6732.793 1  Rx        0183 -  8    00 08 07 3C 00 0F 0E 00 
   338)      6752.718 1  Rx        0183 -  8    01 3B 00 6B 01 00 00 00 
   339)      6772.729 1  Rx        0183 -  8    02 F1 00 2A 00 00 00 00 
   340)      6792.824 1  Rx        0183 -  8    00 08 07 14 00 0F 0E 00 
   341)      6812.749 1  Rx        0183 -  8    01 3B 00 70 01 00 00 00 
   342)      6832.802 1  Rx        0183 -  8    00 08 07 45 00 0F 0E 00 
   343)      6852.727 1  Rx        0183 -  8    01 2E 00 6A 01 00 00 00 
   344)      6872.738 1  Rx        0183 -  8    02 F1 00 2A 00 00 00 00 
   345)      6892.791 1  Rx        0183 -  8    00 08 07 09 00 0F 0E 00 
   346)      6912.716 1  Rx        0183 -  8    01 35 00 6F 01 00 00 00 
   347)      6932.769 1  Rx        0183 -  8    00 08 07 0E 00 0F 0E 00 
   348)      6952.736 1  Rx        0183 -  8    01 38 00 6F 01 00 00 00 
   349)      6972.704 1  Rx        0183 -  8    02 F1 00 2A 00 00 00 00 
   350)      6992.800 1  Rx        0183 -  8    00 08 07 10 00 0F 0E 00 
   351)      7012.725 1  Rx        0183 -  8    01 A7 00 70 01 00 00 00 
   352)      7032.778 1  Rx        0183 -  8    00 08 07 3C 00 0F 0E 00 
   353)      7052.703 1  Rx        0183 -  8    01 38 00 70 01 00 00 00 
   354)      7072.713 1  Rx        0183 -  8    02 F1 00 28 00 00 00 00 
   355)      7092.809 1  Rx        0183 -  8    00 08 07 13 00 0F 0E 00 
   356)      7112.734 1  Rx        0183 -  8    01 9E 00 6A 01 00 00 00 
   357)      7132.787 1  Rx        0183 -  8    00 08 07 42 00 0F 0E 00 
   358)      7152.712 1  Rx        0183 -  8    01 9E 00 6E 01 00 00 00 
   359)      7172.722 1  Rx        0183 -  8    02 F1 00 2C 00 00 00 00 
   360)      7192.775 1  Rx        0183 -  8    00 08 07 08 00 0F 0E 00 
   361)      7212.700 1  Rx        0183 -  8    01 8B 00 6C 01 00 00 00 
   362)      7232.753 1  Rx        0183 -  8    00 08 07 0E 00 0F 0E 00 
   363)      7252.721 1  Rx        0183 -  8    01 95 00 6B 01 00 00 00 
   364)      7272.689 1  Rx        0183 -  8    02 F1 00 2C 00 00 00 00 
   365)      7292.784 1  Rx        0183 -  8    00 08 07 0B 00 0F 0E 00 
   366)      7312.709 1  Rx        0183 -  8    01 AA 00 69 01 00 00 00 
   367)      7332.762 1  Rx        0183 -  8    00 08 07 3A 00 0F 0E 00 
   368)      7352.688 1  Rx        0183 -  8    01 98 00 6A 01 00 00 00 
   369)      7372.698 1  Rx        0183 -  8    02 F1 00 28 00 00 00 00 
   370)      7392.794 1  Rx        0183 -  8    00 08 07 78 00 0F 0E 00 
   371)      7412.719 1  Rx        0183 -  8    01 38 00 6B 01 00 00 00 
   372)      7432.772 1  Rx        0183 -  8    00 08 07 4A 00 0F 0E 00 
   373)      7452.697 1  Rx        0183 -  8    01 A1 00 6B 01 00 00 00 
   374)      7472.707 1  Rx        0183 -  8    02 F1 00 28 00 00 00 00 
   375)      7492.760 1  Rx        0183 -  8    00 08 07 07 00 0F 0E 00 
   376)      7512.685 1  Rx        0183 -  8    01 32 00 6F 01 00 00 00 
   377)      7532.746 1  Rx        0183 -  8    00 08 07 11 00 0F 0E 00 
   378)      7552.714 1  Rx        0183 -  8    01 35 00 6A 01 00 00 00 
   379)      7572.681 1  Rx        0183 -  8    02 F1 00 2A 00 00 00 00 
   380)      7592.777 1  Rx        0183 -  8    00 08 07 0B 00 0F 0E 00 
   381)      7612.702 1  Rx        0183 -  8    01 32 00 6E 01 00 00 00 
   382)      7632.755 1  Rx        0183 -  8    00 08 07 03 00 0F 0E 00 
   383)      7652.680 1  Rx        0183 -  8    01 35 00 70 01 00 00 00 
   384)      7672.691 1  Rx        0183 -  8    02 F1 00 28 00 00 00 00 
   385)      7692.786 1  Rx        0183 -  8    00 08 07 4C 00 0F 0E 00 
   386)      7712.669 1  Rx        0183 -  8    01 85 00 6E 01 00 00 00 
   387)      7732.764 1  Rx        0183 -  8    00 08 07 4A 00 0F 0E 00 
   388)      7752.689 1  Rx        0183 -  8    01 47 00 6F 01 00 00 00 
   389)      7772.700 1  Rx        0183 -  8    02 F1 00 2C 00 00 00 00 
   390)      7792.753 1  Rx        0183 -  8    00 08 07 15 00 0F 0E 00 
   391)      7812.678 1  Rx        0183 -  8    01 B1 00 6B 01 00 00 00 
   392)      7832.731 1  Rx        0183 -  8    00 08 07 11 00 0F 0E 00 
   393)      7852.698 1  Rx        0183 -  8    01 AE 00 70 01 00 00 00 
   394)      7872.666 1  Rx        0183 -  8    02 F1 00 2A 00 00 00 00 
   395)      7892.762 1  Rx        0183 -  8    00 08 07 0A 00 0F 0E 00 
   396)      7912.687 1  Rx        0183 -  8    01 7F 00 6B 01 00 00 00 
   397)      7932.740 1  Rx        0183 -  8    00 08 07 03 00 0F 0E 00 
   398)      7952.665 1  Rx        0183 -  8    01 69 00 6F 01 00 00 00 
   399)      7972.675 1  Rx        0183 -  8    02 F1 00 2A 00 00 00 00 
   400)      7992.771 1  Rx        0183 -  8    00 08 07 67 00 0F 0E 00 
   401)      8012.653 1  Rx        0183 -  8    01 A1 00 6C 01 00 00 00 
   402)      8032.749 1  Rx        0183 -  8    00 08 07 09 00 0F 0E 00 
   403)      8052.674 1  Rx        0183 -  8    01 AA 00 6B 01 00 00 00 
   404)      8072.684 1  Rx        0183 -  8    02 F1 00 2A 00 00 00 00 
   405)      8092.737 1  Rx        0183 -  8    00 08 07 1C 00 0F 0E 00 
   406)      8112.662 1  Rx        0183 -  8    01 2B 00 6A 01 00 00 00 
   407)      8132.758 1  Rx        0183 -  8    00 08 07 0F 00 0F 0E 00 
   408)      8152.683 1  Rx        0183 -  8    01 70 00 6B 01 00 00 00 
   409)      8172.651 1  Rx        0183 -  8    02 F1 00 2C 00 00 00 00 
   410)      8192.746 1  Rx        0183 -  8    00 08 07 0A 00 0F 0E 00 
   411)      8212.671 1  Rx        0183 -  8    01 3B 00 70 01 00 00 00 
   412)      8232.724 1  Rx        0183 -  8    00 08 07 04 00 0F 0E 00 
   413)      8252.649 1  Rx        0183 -  8    01 3E 00 6C 01 00 00 00 
   414)      8272.660 1  Rx        0183 -  8    02 F1 00 2C 00 00 00 00 
   415)      8292.755 1  Rx        0183 -  8    00 08 07 7E 00 0F 0E 00 
   416)      8312.681 1  Rx        0183 -  8    01 38 00 6F 01 00 00 00 
   417)      8332.734 1  Rx        0183 -  8    00 08 07 06 00 0F 0E 00 
   418)      8352.659 1  Rx        0183 -  8    01 3B 00 6F 01 00 00 00 
   419)      8372.669 1  Rx        0183 -  8    02 F1 00 28 00 00 00 00 
   420)      8392.722 1  Rx        0183 -  8    00 08 07 1A 00 0F 0E 00 
   421)      8412.647 1  Rx        0183 -  8    01 35 00 70 01 00 00 00 
   422)      8432.700 1  Rx        0183 -  8    00 08 07 52 00 0F 0E 00 
   423)      8452.668 1  Rx        0183 -  8    01 51 00 6F 01 00 00 00 
   424)      8472.635 1  Rx        0183 -  8    02 F1 00 2A 00 00 00 00 
   425)      8492.731 1  Rx        0183 -  8    00 08 07 0B 00 0F 0E 00 
   426)      8512.656 1  Rx        0183 -  8    01 82 00 70 01 00 00 00 
   427)      8532.668 1  Rx        0183 -  8    00 08 07 05 00 0F 0E 00 
   428)      8552.636 1  Rx        0183 -  8    01 3E 00 6F 01 00 00 00 
   429)      8572.603 1  Rx        0183 -  8    02 F1 00 2C 00 00 00 00 
   430)      8592.699 1  Rx        0183 -  8    00 08 07 09 00 0F 0E 00 
   431)      8612.582 1  Rx        0183 -  8    01 70 00 6A 01 00 00 00 
   432)      8632.677 1  Rx        0183 -  8    00 08 07 0A 00 0F 0E 00 
   433)      8652.602 1  Rx        0183 -  8    01 AE 00 6E 01 00 00 00 
   434)      8672.613 1  Rx        0183 -  8    02 F1 00 2A 00 00 00 00 
   435)      8692.666 1  Rx        0183 -  8    00 08 07 19 00 0F 0E 00 
   436)      8712.591 1  Rx        0183 -  8    01 95 00 6A 01 00 00 00 
   437)      8732.644 1  Rx        0183 -  8    00 08 07 4E 00 0F 0E 00 
   438)      8752.611 1  Rx        0183 -  8    01 76 00 6C 01 00 00 00 
   439)      8772.579 1  Rx        0183 -  8    02 F2 00 2A 00 00 00 00 
   440)      8792.675 1  Rx        0183 -  8    00 08 07 0A 00 0F 0E 00 
   441)      8812.600 1  Rx        0183 -  8    01 35 00 6A 01 00 00 00 
   442)      8832.653 1  Rx        0183 -  8    00 08 07 38 00 0F 0E 00 
   443)      8852.578 1  Rx        0183 -  8    01 73 00 6A 01 00 00 00 
   444)      8872.588 1  Rx        0183 -  8    02 F1 00 23 00 00 00 00 
   445)      8892.684 1  Rx        0183 -  8    00 08 07 0A 00 0F 0E 00 
   446)      8912.609 1  Rx        0183 -  8    01 35 00 6F 01 00 00 00 
   447)      8932.662 1  Rx        0183 -  8    00 08 07 0A 00 0F 0E 00 
   448)      8952.587 1  Rx        0183 -  8    01 2E 00 6A 01 00 00 00 
   449)      8972.597 1  Rx        0183 -  8    02 F1 00 23 00 00 00 00 
   450)      8992.693 1  Rx        0183 -  8    00 08 07 18 00 0F 0E 00 
   451)      9012.618 1  Rx        0183 -  8    01 3E 00 6F 01 00 00 00 
   452)      9032.671 1  Rx        0183 -  8    00 08 07 4D 00 0F 0E 00 
   453)      9052.596 1  Rx        0183 -  8    01 2B 00 6F 01 00 00 00 
   454)      9072.564 1  Rx        0183 -  8    02 F2 00 2C 00 00 00 00 
   455)      9092.659 1  Rx        0183 -  8    00 08 07 10 00 0F 0E 00 
   456)      9112.584 1  Rx        0183 -  8    01 38 00 6E 01 00 00 00 
   457)      9132.637 1  Rx        0183 -  8    00 08 07 3E 00 0F 0E 00 
   458)      9152.562 1  Rx        0183 -  8    01 54 00 70 01 00 00 00 
   459)      9172.573 1  Rx        0183 -  8    02 F2 00 2A 00 00 00 00 
   460)      9192.668 1  Rx        0183 -  8    00 08 07 09 00 0F 0E 00 
   461)      9212.551 1  Rx        0183 -  8    01 B1 00 6F 01 00 00 00 
   462)      9232.646 1  Rx        0183 -  8    00 08 07 0F 00 0F 0E 00 
   463)      9252.572 1  Rx        0183 -  8    01 35 00 6F 01 00 00 00 
   464)      9272.582 1  Rx        0183 -  8    02 F1 00 2A 00 00 00 00 
   465)      9292.635 1  Rx        0183 -  8    00 08 07 13 00 0F 0E 00 
   466)      9312.560 1  Rx        0183 -  8    01 9B 00 6B 01 00 00 00 
   467)      9332.613 1  Rx        0183 -  8    00 08 07 4D 00 0F 0E 00 
   468)      9352.581 1  Rx        0183 -  8    01 9E 00 6F 01 00 00 00 
   469)      9372.548 1  Rx        0183 -  8    02 F2 00 2C 00 00 00 00 
   470)      9392.644 1  Rx        0183 -  8    00 08 07 9C 00 0F 0E 00 
   471)      9412.569 1  Rx        0183 -  8    01 76 00 6A 01 00 00 00 
   472)      9432.622 1  Rx        0183 -  8    00 08 07 3E 00 0F 0E 00 
   473)      9452.547 1  Rx        0183 -  8    01 A4 00 6A 01 00 00 00 
   474)      9472.557 1  Rx        0183 -  8    02 F2 00 28 00 00 00 00 
   475)      9492.653 1  Rx        0183 -  8    00 08 07 08 00 0F 0E 00 
   476)      9512.578 1  Rx        0183 -  8    01 38 00 6B 01 00 00 00 
   477)      9532.638 1  Rx        0183 -  8    00 08 07 11 00 0F 0E 00 
   478)      9552.563 1  Rx        0183 -  8    01 AA 00 6C 01 00 00 00 
   479)      9572.574 1  Rx        0183 -  8    02 F2 00 28 00 00 00 00 
   480)      9592.627 1  Rx        0183 -  8    00 08 07 12 00 0F 0E 00 
   481)      9612.552 1  Rx        0183 -  8    01 2E 00 6A 01 00 00 00 
   482)      9632.647 1  Rx        0183 -  8    00 08 07 06 00 0F 0E 00 
   483)      9652.572 1  Rx        0183 -  8    01 A7 00 6B 01 00 00 00 
   484)      9672.540 1  Rx        0183 -  8    02 F2 00 2C 00 00 00 00 
   485)      9692.636 1  Rx        0183 -  8    00 08 07 7E 00 0F 0E 00 
   486)      9712.561 1  Rx        0183 -  8    01 3B 00 6F 01 00 00 00 
   487)      9732.614 1  Rx        0183 -  8    00 08 07 3D 00 0F 0E 00 
   488)      9752.539 1  Rx        0183 -  8    01 2B 00 6A 01 00 00 00 
   489)      9772.549 1  Rx        0183 -  8    02 F1 00 2A 00 00 00 00 
   490)      9792.645 1  Rx        0183 -  8    00 08 07 0F 00 0F 0E 00 
   491)      9812.527 1  Rx        0183 -  8    01 3B 00 6F 01 00 00 00 
   492)      9832.623 1  Rx        0183 -  8    00 08 07 11 00 0F 0E 00 
   493)      9852.548 1  Rx        0183 -  8    01 3B 00 6F 01 00 00 00 
   494)      9872.558 1  Rx        0183 -  8    02 F1 00 2A 00 00 00 00 
   495)      9892.611 1  Rx        0183 -  8    00 08 07 11 00 0F 0E 00 
   496)      9912.536 1  Rx        0183 -  8    01 AA 00 6F 01 00 00 00 
   497)      9932.632 1  Rx        0183 -  8    00 08 07 07 00 0F 0E 00 
   498)      9952.557 1  Rx        0183 -  8    01 3E 00 70 01 00 00 00 
   499)      9972.567 1  Rx        0183 -  8    02 F2 00 28 00 00 00 00 
   500)      9992.620 1  Rx        0183 -  8    00 08 07 93 00 0F 0E 00 
   501)     10012.545 1  Rx        0183 -  8    01 60 00 6B 01 00 00 00 
   502)     10032.598 1  Rx        0183 -  8    00 08 07 05 00 0F 0E 00 
   503)     10052.523 1  Rx        0183 -  8    01 9E 00 6E 01 00 00 00 
   504)     10072.534 1  Rx        0183 -  8    02 F2 00 2C 00 00 00 00 
   505)     10092.629 1  Rx        0183 -  8    00 08 07 0F 00 0F 0E 00 
   506)     10112.554 1  Rx        0183 -  8    01 A7 00 6B 01 00 00 00 
   507)     10132.607 1  Rx        0183 -  8    00 08 07 0E 00 0F 0E 00 
   508)     10152.532 1  Rx        0183 -  8    01 A4 00 6B 01 00 00 00 
   509)     10172.543 1  Rx        0183 -  8    02 F1 00 2A 00 00 00 00 
   510)     10192.596 1  Rx        0183 -  8    00 08 07 0E 00 0F 0E 00 
   511)     10212.521 1  Rx        0183 -  8    01 7F 00 6B 01 00 00 00 
   512)     10232.617 1  Rx        0183 -  8    00 08 07 07 00 0F 0E 00 
   513)     10252.542 1  Rx        0183 -  8    01 A4 00 6B 01 00 00 00 
   514)     10272.509 1  Rx        0183 -  8    02 F2 00 2A 00 00 00 00 
   515)     10292.605 1  Rx        0183 -  8    00 08 07 AC 00 0F 0E 00 
   516)     10312.530 1  Rx        0183 -  8    01 44 00 6B 01 00 00 00 
   517)     10332.583 1  Rx        0183 -  8    00 08 07 07 00 0F 0E 00 
   518)     10352.508 1  Rx        0183 -  8    01 82 00 69 01 00 00 00 
   519)     10372.518 1  Rx        0183 -  8    02 F2 00 28 00 00 00 00 
   520)     10392.614 1  Rx        0183 -  8    00 08 07 11 00 0F 0E 00 
   521)     10412.496 1  Rx        0183 -  8    01 38 00 6F 01 00 00 00 
   522)     10432.592 1  Rx        0183 -  8    00 08 07 24 00 0F 0E 00 
   523)     10452.517 1  Rx        0183 -  8    01 38 00 6B 01 00 00 00 
   524)     10472.527 1  Rx        0183 -  8    02 F2 00 2A 00 00 00 00 
   525)     10492.580 1  Rx        0183 -  8    00 08 07 0F 00 0F 0E 00 
   526)     10512.505 1  Rx        0183 -  8    01 35 00 70 01 00 00 00 
   527)     10532.584 1  Rx        0183 -  8    00 08 07 0A 00 0F 0E 00 
   528)     10552.551 1  Rx        0183 -  8    01 2E 00 6F 01 00 00 00 
   529)     10572.519 1  Rx        0183 -  8    02 F1 00 2C 00 00 00 00 
   530)     10592.615 1  Rx        0183 -  8    00 08 07 0B 00 0F 0E 00 
   531)     10612.540 1  Rx        0183 -  8    01 79 00 6B 01 00 00 00 
   532)     10632.593 1  Rx        0183 -  8    00 08 07 04 00 0F 0E 00 
   533)     10652.518 1  Rx        0183 -  8    01 28 00 53 01 00 00 00 
   534)     10672.528 1  Rx        0183 -  8    02 F2 00 2A 00 00 00 00 
   535)     10692.624 1  Rx        0183 -  8    00 08 07 0E 00 0F 0E 00 
   536)     10712.549 1  Rx        0183 -  8    01 38 00 30 01 00 00 00 
   537)     10732.602 1  Rx        0183 -  8    00 08 07 41 00 0F 0E 00 
   538)     10752.527 1  Rx        0183 -  8    01 3B 00 1A 01 00 00 00 
   539)     10772.537 1  Rx        0183 -  8    02 F2 00 2A 00 00 00 00 
   540)     10792.590 1  Rx        0183 -  8    00 08 07 0B 00 0F 0E 00 
   541)     10812.515 1  Rx        0183 -  8    01 2B 00 0B 01 00 00 00 
   542)     10832.568 1  Rx        0183 -  8    00 08 07 1B 00 0F 0E 00 
   543)     10852.536 1  Rx        0183 -  8    01 32 00 0A 01 00 00 00 
   544)     10872.504 1  Rx        0183 -  8    02 F1 00 28 00 00 00 00 
   545)     10892.599 1  Rx        0183 -  8    00 08 07 0A 00 0F 0E 00 
   546)     10912.524 1  Rx        0183 -  8    01 2B 00 F9 00 00 00 00 
   547)     10932.577 1  Rx        0183 -  8    00 08 07 08 00 0F 0E 00 
   548)     10952.502 1  Rx        0183 -  8    01 35 00 FA 00 00 00 00 
   549)     10972.513 1  Rx        0183 -  8    02 F1 00 28 00 00 00 00 
   550)     10992.608 1  Rx        0183 -  8    00 08 07 1A 00 0F 0E 00 
   551)     11012.533 1  Rx        0183 -  8    01 4A 00 FB 00 00 00 00 
   552)     11032.586 1  Rx        0183 -  8    00 08 07 44 00 0F 0E 00 
   553)     11052.511 1  Rx        0183 -  8    01 2E 00 F8 00 00 00 00 
   554)     11072.522 1  Rx        0183 -  8    02 F1 00 2A 00 00 00 00 
   555)     11092.575 1  Rx        0183 -  8    00 08 07 09 00 0F 0E 00 
   556)     11112.500 1  Rx        0183 -  8    01 4D 00 F0 00 00 00 00 
   557)     11132.553 1  Rx        0183 -  8    00 08 07 15 00 0F 0E 00 
   558)     11152.520 1  Rx        0183 -  8    01 47 00 DE 00 00 00 00 
   559)     11172.488 1  Rx        0183 -  8    02 F1 00 2A 00 00 00 00 
   560)     11192.584 1  Rx        0183 -  8    00 08 07 07 00 0F 0E 00 
   561)     11212.509 1  Rx        0183 -  8    01 3E 00 CA 00 00 00 00 
   562)     11232.562 1  Rx        0183 -  8    00 08 07 0B 00 0F 0E 00 
   563)     11252.487 1  Rx        0183 -  8    01 44 00 C9 00 00 00 00 
   564)     11272.497 1  Rx        0183 -  8    02 F1 00 2C 00 00 00 00 
   565)     11292.593 1  Rx        0183 -  8    00 08 07 10 00 0F 0E 00 
   566)     11312.518 1  Rx        0183 -  8    01 41 00 CA 00 00 00 00 
   567)     11332.571 1  Rx        0183 -  8    00 08 07 34 00 0F 0E 00 
   568)     11352.496 1  Rx        0183 -  8    01 3B 00 C2 00 00 00 00 
   569)     11372.506 1  Rx        0183 -  8    02 F1 00 2A 00 00 00 00 
   570)     11392.559 1  Rx        0183 -  8    00 08 07 33 00 0F 0E 00 
   571)     11412.484 1  Rx        0183 -  8    01 3E 00 AE 00 00 00 00 
   572)     11432.537 1  Rx        0183 -  8    00 08 07 13 00 0F 0E 00 
   573)     11452.505 1  Rx        0183 -  8    01 35 00 A1 00 00 00 00 
   574)     11472.515 1  Rx        0183 -  8    02 F1 00 28 00 00 00 00 
   575)     11492.569 1  Rx        0183 -  8    00 08 07 05 00 0F 0E 00 
   576)     11512.494 1  Rx        0183 -  8    01 3B 00 90 00 00 00 00 
   577)     11532.560 1  Rx        0183 -  8    00 08 07 07 00 0F 0E 00 
   578)     11552.485 1  Rx        0183 -  8    01 38 00 86 00 00 00 00 
   579)     11572.495 1  Rx        0183 -  8    02 F1 00 2A 00 00 00 00 
   580)     11592.591 1  Rx        0183 -  8    00 08 07 0A 00 0F 0E 00 
   581)     11612.516 1  Rx        0183 -  8    01 3E 00 79 00 00 00 00 
   582)     11632.569 1  Rx        0183 -  8    00 08 07 03 00 0F 0E 00 
   583)     11652.494 1  Rx        0183 -  8    01 3E 00 70 00 00 00 00 
   584)     11672.504 1  Rx        0183 -  8    02 F1 00 2F 00 00 00 00 
   585)     11692.557 1  Rx        0183 -  8    00 08 07 21 00 0F 0E 00 
   586)     11712.525 1  Rx        0183 -  8    01 38 00 64 00 00 00 00 
   587)     11732.578 1  Rx        0183 -  8    00 08 07 0B 00 0F 0E 00 
   588)     11752.503 1  Rx        0183 -  8    01 3B 00 5C 00 00 00 00 
   589)     11772.470 1  Rx        0183 -  8    02 F1 00 28 00 00 00 00 
   590)     11792.566 1  Rx        0183 -  8    00 08 07 02 00 0F 0E 00 
   591)     11812.491 1  Rx        0183 -  8    01 38 00 52 00 00 00 00 
   592)     11832.544 1  Rx        0183 -  8    00 08 07 03 00 0F 0E 00 
   593)     11852.469 1  Rx        0183 -  8    01 3E 00 4D 00 00 00 00 
   594)     11872.480 1  Rx        0183 -  8    02 F1 00 2C 00 00 00 00 
   595)     11892.575 1  Rx        0183 -  8    00 08 07 03 00 0F 0E 00 
   596)     11912.500 1  Rx        0183 -  8    01 3E 00 44 00 00 00 00 
   597)     11932.553 1  Rx        0183 -  8    00 08 07 03 00 0F 0E 00 
   598)     11952.478 1  Rx        0183 -  8    01 3B 00 3F 00 00 00 00 
   599)     11972.489 1  Rx        0183 -  8    02 F1 00 2A 00 00 00 00 
   600)     11992.542 1  Rx        0183 -  8    00 08 07 12 00 0F 0E 00 
   601)     12012.467 1  Rx        0183 -  8    01 3B 00 37 00 00 00 00 
   602)     12032.562 1  Rx        0183 -  8    00 08 07 03 00 0F 0E 00 
   603)     12052.487 1  Rx        0183 -  8    01 3B 00 33 00 00 00 00 
   604)     12072.498 1  Rx        0183 -  8    02 F1 00 28 00 00 00 00 
   605)     12092.551 1  Rx        0183 -  8    00 08 07 03 00 0F 0E 00 
   606)     12112.476 1  Rx        0183 -  8    01 38 00 2C 00 00 00 00 
   607)     12132.529 1  Rx        0183 -  8    00 08 07 03 00 0F 0E 00 
   608)     12152.454 1  Rx        0183 -  8    01 3B 00 2A 00 00 00 00 
   609)     12172.464 1  Rx        0183 -  8    02 F1 00 2A 00 00 00 00 
   610)     12192.560 1  Rx        0183 -  8    00 08 07 04 00 0F 0E 00 
   611)     12212.485 1  Rx        0183 -  8    01 3E 00 25 00 00 00 00 
   612)     12232.538 1  Rx        0183 -  8    00 08 07 03 00 0F 0E 00 
   613)     12252.463 1  Rx        0183 -  8    01 3E 00 22 00 00 00 00 
   614)     12272.473 1  Rx        0183 -  8    02 F1 00 2F 00 00 00 00 
   615)     12292.526 1  Rx        0183 -  8    00 08 07 09 00 0F 0E 00 
   616)     12312.451 1  Rx        0183 -  8    01 3E 00 1F 00 00 00 00 
   617)     12332.547 1  Rx        0183 -  8    00 08 07 03 00 0F 0E 00 
   618)     12352.472 1  Rx        0183 -  8    01 3B 00 1D 00 00 00 00 
   619)     12372.440 1  Rx        0183 -  8    02 F1 00 28 00 00 00 00 
   620)     12392.535 1  Rx        0183 -  8    00 08 07 03 00 0F 0E 00 
   621)     12412.460 1  Rx        0183 -  8    01 3B 00 1B 00 00 00 00 
   622)     12432.513 1  Rx        0183 -  8    00 08 07 09 00 0F 0E 00 
   623)     12452.439 1  Rx        0183 -  8    01 38 00 19 00 00 00 00 
   624)     12472.449 1  Rx        0183 -  8    02 F2 00 2A 00 00 00 00 
   625)     12492.545 1  Rx        0183 -  8    00 08 07 03 00 0F 0E 00 
   626)     12512.470 1  Rx        0183 -  8    01 41 00 17 00 00 00 00 
   627)     12532.511 1  Rx        0183 -  8    00 08 07 03 00 0F 0E 00 
   628)     12552.436 1  Rx        0183 -  8    01 3E 00 17 00 00 00 00 
   629)     12572.446 1  Rx        0183 -  8    02 F2 00 2A 00 00 00 00 
   630)     12592.499 1  Rx        0183 -  8    00 08 07 03 00 0F 0E 00 
   631)     12612.424 1  Rx        0183 -  8    01 3E 00 17 00 00 00 00 
   632)     12632.520 1  Rx        0183 -  8    00 08 07 03 00 0F 0E 00 
   633)     12652.445 1  Rx        0183 -  8    01 3B 00 16 00 00 00 00 
   634)     12672.412 1  Rx        0183 -  8    02 F2 00 2A 00 00 00 00 
   635)     12692.508 1  Rx        0183 -  8    00 08 07 03 00 0F 0E 00 
   636)     12712.433 1  Rx        0183 -  8    01 38 00 15 00 00 00 00 
   637)     12732.486 1  Rx        0183 -  8    00 08 07 03 00 0F 0E 00 
   638)     12752.454 1  Rx        0183 -  8    01 3E 00 15 00 00 00 00 
   639)     12772.422 1  Rx        0183 -  8    02 F1 00 2A 00 00 00 00 
   640)     12792.517 1  Rx        0183 -  8    00 08 07 03 00 0F 0E 00 
   641)     12812.442 1  Rx        0183 -  8    01 3B 00 15 00 00 00 00 
   642)     12832.495 1  Rx        0183 -  8    00 08 07 03 00 0F 0E 00 
   643)     12852.420 1  Rx        0183 -  8    01 3E 00 15 00 00 00 00 
   644)     12872.431 1  Rx        0183 -  8    02 F1 00 2F 00 00 00 00 
   645)     12892.484 1  Rx        0183 -  8    00 08 07 03 00 0F 0E 00 
   646)     12912.409 1  Rx        0183 -  8    01 3E 00 15 00 00 00 00 
   647)     12932.504 1  Rx        0183 -  8    00 08 07 03 00 0F 0E 00 
   648)     12952.429 1  Rx        0183 -  8    01 3B 00 15 00 00 00 00 
   649)     12972.397 1  Rx        0183 -  8    02 F2 00 28 00 00 00 00 
   650)     12992.493 1  Rx        0183 -  8    00 08 07 03 00 0F 0E 00 
   651)     13012.418 1  Rx        0183 -  8    01 3B 00 15 00 00 00 00 
   652)     13032.471 1  Rx        0183 -  8    00 08 07 05 00 0F 0E 00 
   653)     13052.396 1  Rx        0183 -  8    01 3B 00 14 00 00 00 00 
   654)     13072.406 1  Rx        0183 -  8    02 F2 00 2A 00 00 00 00 
   655)     13092.502 1  Rx        0183 -  8    00 08 07 03 00 0F 0E 00 
   656)     13112.427 1  Rx        0183 -  8    01 3E 00 15 00 00 00 00 
   657)     13132.480 1  Rx        0183 -  8    00 08 07 03 00 0F 0E 00 
   658)     13152.405 1  Rx        0183 -  8    01 3E 00 15 00 00 00 00 
   659)     13172.415 1  Rx        0183 -  8    02 F2 00 2C 00 00 00 00 
   660)     13192.468 1  Rx        0183 -  8    00 08 07 03 00 0F 0E 00 
   661)     13212.393 1  Rx        0183 -  8    01 3B 00 15 00 00 00 00 
   662)     13232.489 1  Rx        0183 -  8    00 08 07 03 00 0F 0E 00 
   663)     13252.414 1  Rx        0183 -  8    01 38 00 15 00 00 00 00 
   664)     13272.382 1  Rx        0183 -  8    02 F2 00 2F 00 00 00 00 
   665)     13292.477 1  Rx        0183 -  8    00 08 07 03 00 0F 0E 00 
   666)     13312.402 1  Rx        0183 -  8    01 3E 00 15 00 00 00 00 
   667)     13332.455 1  Rx        0183 -  8    00 08 07 05 00 0F 0E 00 
   668)     13352.423 1  Rx        0183 -  8    01 3E 00 15 00 00 00 00 
   669)     13372.391 1  Rx        0183 -  8    02 F2 00 2A 00 00 00 00 
   670)     13392.486 1  Rx        0183 -  8    00 08 07 02 00 0F 0E 00 
